# vsim -coverage -vopt apb_top -sv_seed random -c -do "coverage save -onexit apb_max_pready_test_0.ucdb; run -all; exit" "+UVM_TESTNAME=apb_max_pready_test" 
# Start time: 14:34:25 on Jul 03,2026
# ** Note: (vsim-8009) Loading existing optimized design _opt
# //  Questa Sim-64
# //  Version 10.7c win64 Aug 18 2018
# //
# //  Copyright 1991-2018 Mentor Graphics Corporation
# //  All Rights Reserved.
# //
# //  QuestaSim and its associated documentation contain trade
# //  secrets and commercial or financial information that are the property of
# //  Mentor Graphics Corporation and are privileged, confidential,
# //  and exempt from disclosure under the Freedom of Information Act,
# //  5 U.S.C. Section 552. Furthermore, this information
# //  is prohibited from disclosure under the Trade Secrets Act,
# //  18 U.S.C. Section 1905.
# //
# Loading sv_std.std
# Loading work.apb_inf(fast)
# Loading mtiUvm.uvm_pkg
# Loading work.apb_pkg(fast)
# Loading work.apb_top_sv_unit(fast)
# Loading work.apb_top(fast)
# Loading work.apb_pkg_sv_unit(fast)
# Loading work.apb_inf(fast)
# Loading mtiUvm.questa_uvm_pkg(fast)
# Loading C:/questasim64_10.7c/uvm-1.1d\win64\uvm_dpi.dll
# Sv_Seed = 1946509610
# coverage save -onexit apb_max_pready_test_0.ucdb
#  run -all
# ----------------------------------------------------------------
# UVM-1.1d
# (C) 2007-2013 Mentor Graphics Corporation
# (C) 2007-2013 Cadence Design Systems, Inc.
# (C) 2006-2013 Synopsys, Inc.
# (C) 2011-2013 Cypress Semiconductor Corp.
# ----------------------------------------------------------------
# 
#   ***********       IMPORTANT RELEASE NOTES         ************
# 
#   You are using a version of the UVM library that has been compiled
#   with `UVM_NO_DEPRECATED undefined.
#   See http://www.eda.org/svdb/view.php?id=3313 for more details.
# 
#   You are using a version of the UVM library that has been compiled
#   with `UVM_OBJECT_MUST_HAVE_CONSTRUCTOR undefined.
#   See http://www.eda.org/svdb/view.php?id=3770 for more details.
# 
#       (Specify +UVM_NO_RELNOTES to turn off this notice)
# 
# UVM_INFO verilog_src/questa_uvm_pkg-1.2/src/questa_uvm_pkg.sv(215) @ 0: reporter [Questa UVM] QUESTA_UVM-1.2.3
# UVM_INFO verilog_src/questa_uvm_pkg-1.2/src/questa_uvm_pkg.sv(216) @ 0: reporter [Questa UVM]  questa_uvm::init(+struct)
# UVM_INFO @ 0: reporter [RNTST] Running test apb_max_pready_test...
# UVM_INFO ../TEST/apb_base_test.sv(60) @ 0: uvm_test_top [apb_max_pready_test] Build-Phase complete in Test
# UVM_INFO ../env/apb_env.sv(51) @ 0: uvm_test_top.env_h [apb_env] ENV built | slaves=4
# UVM_INFO ../master_agent/apb_master_agent.sv(23) @ 0: uvm_test_top.env_h.agent_hm [apb_master_agent] Executing Build-Phase in Master Agent
# UVM_INFO ../master_agent/apb_master_agent.sv(39) @ 0: uvm_test_top.env_h.agent_hm [apb_master_agent] Build-Phase Complete in Master Agent
# ------ Execution Done Build-Phase in Master Driver -------
# UVM_INFO ../slave_agent/apb_slave_agent.sv(25) @ 0: uvm_test_top.env_h.agent_hs_0 [apb_slave_agent] Executing Build-Phase in Slave Agent
# UVM_INFO ../slave_agent/apb_slave_agent.sv(41) @ 0: uvm_test_top.env_h.agent_hs_0 [apb_slave_agent] Build-Phase Complete in Slave Agent
# UVM_INFO ../slave_agent/apb_slave_drv.sv(30) @ 0: uvm_test_top.env_h.agent_hs_0.drv_hs [apb_slave_drv] Build-Phase Complete in Slave Driver
# UVM_INFO ../slave_agent/apb_slave_agent.sv(25) @ 0: uvm_test_top.env_h.agent_hs_1 [apb_slave_agent] Executing Build-Phase in Slave Agent
# UVM_INFO ../slave_agent/apb_slave_agent.sv(41) @ 0: uvm_test_top.env_h.agent_hs_1 [apb_slave_agent] Build-Phase Complete in Slave Agent
# UVM_INFO ../slave_agent/apb_slave_drv.sv(30) @ 0: uvm_test_top.env_h.agent_hs_1.drv_hs [apb_slave_drv] Build-Phase Complete in Slave Driver
# UVM_INFO ../slave_agent/apb_slave_agent.sv(25) @ 0: uvm_test_top.env_h.agent_hs_2 [apb_slave_agent] Executing Build-Phase in Slave Agent
# UVM_INFO ../slave_agent/apb_slave_agent.sv(41) @ 0: uvm_test_top.env_h.agent_hs_2 [apb_slave_agent] Build-Phase Complete in Slave Agent
# UVM_INFO ../slave_agent/apb_slave_drv.sv(30) @ 0: uvm_test_top.env_h.agent_hs_2.drv_hs [apb_slave_drv] Build-Phase Complete in Slave Driver
# UVM_INFO ../slave_agent/apb_slave_agent.sv(25) @ 0: uvm_test_top.env_h.agent_hs_3 [apb_slave_agent] Executing Build-Phase in Slave Agent
# UVM_INFO ../slave_agent/apb_slave_agent.sv(41) @ 0: uvm_test_top.env_h.agent_hs_3 [apb_slave_agent] Build-Phase Complete in Slave Agent
# UVM_INFO ../slave_agent/apb_slave_drv.sv(30) @ 0: uvm_test_top.env_h.agent_hs_3.drv_hs [apb_slave_drv] Build-Phase Complete in Slave Driver
# UVM_INFO ../master_agent/apb_master_agent.sv(47) @ 0: uvm_test_top.env_h.agent_hm [apb_master_agent] Executing Connect-Phase in Master Agent
# UVM_INFO ../master_agent/apb_master_agent.sv(53) @ 0: uvm_test_top.env_h.agent_hm [apb_master_agent] Connect-Phase Complete in Master Agent
# UVM_INFO ../slave_agent/apb_slave_agent.sv(49) @ 0: uvm_test_top.env_h.agent_hs_0 [apb_slave_agent] Executing Connect-Phase in Slave Agent
# UVM_INFO ../slave_agent/apb_slave_agent.sv(55) @ 0: uvm_test_top.env_h.agent_hs_0 [apb_slave_agent] Connect-Phase Complete in Slave Agent
# UVM_INFO ../slave_agent/apb_slave_agent.sv(49) @ 0: uvm_test_top.env_h.agent_hs_1 [apb_slave_agent] Executing Connect-Phase in Slave Agent
# UVM_INFO ../slave_agent/apb_slave_agent.sv(55) @ 0: uvm_test_top.env_h.agent_hs_1 [apb_slave_agent] Connect-Phase Complete in Slave Agent
# UVM_INFO ../slave_agent/apb_slave_agent.sv(49) @ 0: uvm_test_top.env_h.agent_hs_2 [apb_slave_agent] Executing Connect-Phase in Slave Agent
# UVM_INFO ../slave_agent/apb_slave_agent.sv(55) @ 0: uvm_test_top.env_h.agent_hs_2 [apb_slave_agent] Connect-Phase Complete in Slave Agent
# UVM_INFO ../slave_agent/apb_slave_agent.sv(49) @ 0: uvm_test_top.env_h.agent_hs_3 [apb_slave_agent] Executing Connect-Phase in Slave Agent
# UVM_INFO ../slave_agent/apb_slave_agent.sv(55) @ 0: uvm_test_top.env_h.agent_hs_3 [apb_slave_agent] Connect-Phase Complete in Slave Agent
# UVM_INFO ../env/apb_env.sv(66) @ 0: uvm_test_top.env_h [apb_env] Connect-Phase complete in ENV
# UVM_INFO @ 0: reporter [UVMTOP] UVM testbench topology:
# ------------------------------------------------------------------
# Name                       Type                        Size  Value
# ------------------------------------------------------------------
# uvm_test_top               apb_max_pready_test         -     @475 
#   env_h                    apb_env                     -     @498 
#     agent_hm               apb_master_agent            -     @533 
#       drv_hm               apb_master_drv              -     @614 
#         rsp_port           uvm_analysis_port           -     @629 
#         seq_item_port      uvm_seq_item_pull_port      -     @621 
#       mon_hm               apb_master_mon              -     @599 
#         mas_mon_ap         uvm_analysis_port           -     @606 
#       seqr_hm              apb_master_seqr             -     @637 
#         rsp_export         uvm_analysis_export         -     @644 
#         seq_item_export    uvm_seq_item_pull_imp       -     @738 
#         arbitration_queue  array                       0     -    
#         lock_queue         array                       0     -    
#         num_last_reqs      integral                    32    'd1  
#         num_last_rsps      integral                    32    'd1  
#     agent_hs_0             apb_slave_agent             -     @562 
#       drv_hs               apb_slave_drv               -     @781 
#         rsp_port           uvm_analysis_port           -     @796 
#         seq_item_port      uvm_seq_item_pull_port      -     @788 
#       mon_hs               apb_slave_mon               -     @766 
#         slv_mon_ap         uvm_analysis_port           -     @773 
#       seqr_hs              apb_slave_seqr              -     @804 
#         rsp_export         uvm_analysis_export         -     @811 
#         seq_item_export    uvm_seq_item_pull_imp       -     @905 
#         arbitration_queue  array                       0     -    
#         lock_queue         array                       0     -    
#         num_last_reqs      integral                    32    'd1  
#         num_last_rsps      integral                    32    'd1  
#     agent_hs_1             apb_slave_agent             -     @573 
#       drv_hs               apb_slave_drv               -     @939 
#         rsp_port           uvm_analysis_port           -     @954 
#         seq_item_port      uvm_seq_item_pull_port      -     @946 
#       mon_hs               apb_slave_mon               -     @924 
#         slv_mon_ap         uvm_analysis_port           -     @931 
#       seqr_hs              apb_slave_seqr              -     @962 
#         rsp_export         uvm_analysis_export         -     @969 
#         seq_item_export    uvm_seq_item_pull_imp       -     @1063
#         arbitration_queue  array                       0     -    
#         lock_queue         array                       0     -    
#         num_last_reqs      integral                    32    'd1  
#         num_last_rsps      integral                    32    'd1  
#     agent_hs_2             apb_slave_agent             -     @581 
#       drv_hs               apb_slave_drv               -     @1097
#         rsp_port           uvm_analysis_port           -     @1112
#         seq_item_port      uvm_seq_item_pull_port      -     @1104
#       mon_hs               apb_slave_mon               -     @1082
#         slv_mon_ap         uvm_analysis_port           -     @1089
#       seqr_hs              apb_slave_seqr              -     @1120
#         rsp_export         uvm_analysis_export         -     @1127
#         seq_item_export    uvm_seq_item_pull_imp       -     @1221
#         arbitration_queue  array                       0     -    
#         lock_queue         array                       0     -    
#         num_last_reqs      integral                    32    'd1  
#         num_last_rsps      integral                    32    'd1  
#     agent_hs_3             apb_slave_agent             -     @589 
#       drv_hs               apb_slave_drv               -     @1255
#         rsp_port           uvm_analysis_port           -     @1270
#         seq_item_port      uvm_seq_item_pull_port      -     @1262
#       mon_hs               apb_slave_mon               -     @1240
#         slv_mon_ap         uvm_analysis_port           -     @1247
#       seqr_hs              apb_slave_seqr              -     @1278
#         rsp_export         uvm_analysis_export         -     @1285
#         seq_item_export    uvm_seq_item_pull_imp       -     @1379
#         arbitration_queue  array                       0     -    
#         lock_queue         array                       0     -    
#         num_last_reqs      integral                    32    'd1  
#         num_last_rsps      integral                    32    'd1  
#     cov_h                  apb_coverage                -     @540 
#       analysis_imp         uvm_analysis_imp            -     @547 
#     sb_h                   apb_sb                      -     @555 
#       mas_mon_fifo_h       uvm_tlm_analysis_fifo #(T)  -     @1396
#         analysis_export    uvm_analysis_imp            -     @1435
#         get_ap             uvm_analysis_port           -     @1427
#         get_peek_export    uvm_get_peek_imp            -     @1411
#         put_ap             uvm_analysis_port           -     @1419
#         put_export         uvm_put_imp                 -     @1403
#       slv_mon_fifo_h_0     uvm_tlm_analysis_fifo #(T)  -     @1464
#         analysis_export    uvm_analysis_imp            -     @1503
#         get_ap             uvm_analysis_port           -     @1495
#         get_peek_export    uvm_get_peek_imp            -     @1479
#         put_ap             uvm_analysis_port           -     @1487
#         put_export         uvm_put_imp                 -     @1471
#       slv_mon_fifo_h_1     uvm_tlm_analysis_fifo #(T)  -     @1511
#         analysis_export    uvm_analysis_imp            -     @1550
#         get_ap             uvm_analysis_port           -     @1542
#         get_peek_export    uvm_get_peek_imp            -     @1526
#         put_ap             uvm_analysis_port           -     @1534
#         put_export         uvm_put_imp                 -     @1518
#       slv_mon_fifo_h_2     uvm_tlm_analysis_fifo #(T)  -     @1558
#         analysis_export    uvm_analysis_imp            -     @1597
#         get_ap             uvm_analysis_port           -     @1589
#         get_peek_export    uvm_get_peek_imp            -     @1573
#         put_ap             uvm_analysis_port           -     @1581
#         put_export         uvm_put_imp                 -     @1565
#       slv_mon_fifo_h_3     uvm_tlm_analysis_fifo #(T)  -     @1605
#         analysis_export    uvm_analysis_imp            -     @1644
#         get_ap             uvm_analysis_port           -     @1636
#         get_peek_export    uvm_get_peek_imp            -     @1620
#         put_ap             uvm_analysis_port           -     @1628
#         put_export         uvm_put_imp                 -     @1612
# ------------------------------------------------------------------
# 
# UVM_INFO ../TEST/apb_base_test.sv(69) @ 0: uvm_test_top [apb_max_pready_test] End-of-Elaboration complete in Test
# UVM_INFO ../slave_agent/apb_slave_config.sv(52) @ 0: reporter [apb_slave_config] Slave-0 | Range: 0x0–0x3f | is_active=UVM_ACTIVE | wait=0
# UVM_INFO ../slave_agent/apb_slave_config.sv(52) @ 0: reporter [apb_slave_config] Slave-1 | Range: 0x40–0x7f | is_active=UVM_ACTIVE | wait=0
# UVM_INFO ../slave_agent/apb_slave_config.sv(52) @ 0: reporter [apb_slave_config] Slave-2 | Range: 0x80–0xbf | is_active=UVM_ACTIVE | wait=0
# UVM_INFO ../slave_agent/apb_slave_config.sv(52) @ 0: reporter [apb_slave_config] Slave-3 | Range: 0xc0–0xff | is_active=UVM_ACTIVE | wait=0
# 
# ---------- apb_max_pready_seqs transaction : 1 ----------
# 
# 
# ---------- apb_max_pready_seqs transaction : 1 ----------
# 
# 
# ---------- apb_max_pready_seqs transaction : 1 ----------
# 
# 
# ---------- apb_max_pready_seqs transaction : 1 ----------
# 
# 
# ---------- Master Transaction : 1 ----------
# 
# UVM_INFO ../slave_agent/apb_slave_drv.sv(58) @ 50: uvm_test_top.env_h.agent_hs_0.drv_hs [apb_slave_drv] Transaction received at SLAVE-DRIVER =
# ---------------------------------------------------------------------------------------------------------
# Name                           Type             Size  Value                                              
# ---------------------------------------------------------------------------------------------------------
# trans_hs                       apb_slave_trans  -     @1699                                              
#   PADDR                        integral         8     'h0xx                                              
#   PWDATA                       integral         32    'h0xxxxxxxx                                        
#   PRDATA                       integral         32    'h0xxxxxxxx                                        
#   PSTRB                        integral         4     'h0x                                               
#   PWRITE                       integral         1     'h0X                                               
#   PENABLE                      integral         1     'h0X                                               
#   PREADY                       integral         1     'h0X                                               
#   PSLVERR                      integral         1     'h0X                                               
#   PSEL                         da(integral)     0     -                                                  
#   no_of_wait_cycles            integral         32    'd12                                               
#   wait_enable                  integral         1     1                                                  
#   begin_time                   time             64    50                                                 
#   depth                        int              32    'd2                                                
#   parent sequence (name)       string           13    pready_seqs_0                                      
#   parent sequence (full name)  string           51    uvm_test_top.env_h.agent_hs_0.seqr_hs.pready_seqs_0
#   sequencer                    string           37    uvm_test_top.env_h.agent_hs_0.seqr_hs              
# ---------------------------------------------------------------------------------------------------------
# 
# UVM_INFO ../slave_agent/apb_slave_drv.sv(58) @ 50: uvm_test_top.env_h.agent_hs_1.drv_hs [apb_slave_drv] Transaction received at SLAVE-DRIVER =
# ---------------------------------------------------------------------------------------------------------
# Name                           Type             Size  Value                                              
# ---------------------------------------------------------------------------------------------------------
# trans_hs                       apb_slave_trans  -     @1695                                              
#   PADDR                        integral         8     'h0xx                                              
#   PWDATA                       integral         32    'h0xxxxxxxx                                        
#   PRDATA                       integral         32    'h0xxxxxxxx                                        
#   PSTRB                        integral         4     'h0x                                               
#   PWRITE                       integral         1     'h0X                                               
#   PENABLE                      integral         1     'h0X                                               
#   PREADY                       integral         1     'h0X                                               
#   PSLVERR                      integral         1     'h0X                                               
#   PSEL                         da(integral)     0     -                                                  
#   no_of_wait_cycles            integral         32    'd12                                               
#   wait_enable                  integral         1     1                                                  
#   begin_time                   time             64    50                                                 
#   depth                        int              32    'd2                                                
#   parent sequence (name)       string           13    pready_seqs_1                                      
#   parent sequence (full name)  string           51    uvm_test_top.env_h.agent_hs_1.seqr_hs.pready_seqs_1
#   sequencer                    string           37    uvm_test_top.env_h.agent_hs_1.seqr_hs              
# ---------------------------------------------------------------------------------------------------------
# 
# UVM_INFO ../slave_agent/apb_slave_drv.sv(58) @ 50: uvm_test_top.env_h.agent_hs_2.drv_hs [apb_slave_drv] Transaction received at SLAVE-DRIVER =
# ---------------------------------------------------------------------------------------------------------
# Name                           Type             Size  Value                                              
# ---------------------------------------------------------------------------------------------------------
# trans_hs                       apb_slave_trans  -     @1691                                              
#   PADDR                        integral         8     'h0xx                                              
#   PWDATA                       integral         32    'h0xxxxxxxx                                        
#   PRDATA                       integral         32    'h0xxxxxxxx                                        
#   PSTRB                        integral         4     'h0x                                               
#   PWRITE                       integral         1     'h0X                                               
#   PENABLE                      integral         1     'h0X                                               
#   PREADY                       integral         1     'h0X                                               
#   PSLVERR                      integral         1     'h0X                                               
#   PSEL                         da(integral)     0     -                                                  
#   no_of_wait_cycles            integral         32    'd12                                               
#   wait_enable                  integral         1     1                                                  
#   begin_time                   time             64    50                                                 
#   depth                        int              32    'd2                                                
#   parent sequence (name)       string           13    pready_seqs_2                                      
#   parent sequence (full name)  string           51    uvm_test_top.env_h.agent_hs_2.seqr_hs.pready_seqs_2
#   sequencer                    string           37    uvm_test_top.env_h.agent_hs_2.seqr_hs              
# ---------------------------------------------------------------------------------------------------------
# 
# UVM_INFO ../slave_agent/apb_slave_drv.sv(58) @ 50: uvm_test_top.env_h.agent_hs_3.drv_hs [apb_slave_drv] Transaction received at SLAVE-DRIVER =
# ---------------------------------------------------------------------------------------------------------
# Name                           Type             Size  Value                                              
# ---------------------------------------------------------------------------------------------------------
# trans_hs                       apb_slave_trans  -     @1687                                              
#   PADDR                        integral         8     'h0xx                                              
#   PWDATA                       integral         32    'h0xxxxxxxx                                        
#   PRDATA                       integral         32    'h0xxxxxxxx                                        
#   PSTRB                        integral         4     'h0x                                               
#   PWRITE                       integral         1     'h0X                                               
#   PENABLE                      integral         1     'h0X                                               
#   PREADY                       integral         1     'h0X                                               
#   PSLVERR                      integral         1     'h0X                                               
#   PSEL                         da(integral)     0     -                                                  
#   no_of_wait_cycles            integral         32    'd12                                               
#   wait_enable                  integral         1     1                                                  
#   begin_time                   time             64    50                                                 
#   depth                        int              32    'd2                                                
#   parent sequence (name)       string           13    pready_seqs_3                                      
#   parent sequence (full name)  string           51    uvm_test_top.env_h.agent_hs_3.seqr_hs.pready_seqs_3
#   sequencer                    string           37    uvm_test_top.env_h.agent_hs_3.seqr_hs              
# ---------------------------------------------------------------------------------------------------------
# 
# UVM_INFO ../master_agent/apb_master_drv.sv(151) @ 50: uvm_test_top.env_h.agent_hm.drv_hm [apb_master_drv] [MASTER-TRANS-1] Data Received at MASTER-DRIVER =
# --------------------------------------------------------------------------------------------------
# Name                           Type              Size  Value                                      
# --------------------------------------------------------------------------------------------------
# trans_hm                       apb_master_trans  -     @1703                                      
#   PWRITE                       integral          1     'h1                                        
#   PADDR                        integral          8     'h67                                       
#   PWDATA                       integral          32    'h1605f96c                                 
#   PSTRB                        integral          4     'h3                                        
#   PENABLE                      integral          1     'h1                                        
#   PSEL                         da(integral)      0     -                                          
#   trans_size                   transfer_size_e   2     HALFWORD                                   
#   PREADY                       integral          1     'h0X                                       
#   PRDATA                       integral          32    'h0xxxxxxxx                                
#   PSLVERR                      integral          1     'h0X                                       
#   begin_time                   time              64    50                                         
#   depth                        int               32    'd2                                        
#   parent sequence (name)       string            7     seqs_hm                                    
#   parent sequence (full name)  string            43    uvm_test_top.env_h.agent_hm.seqr_hm.seqs_hm
#   sequencer                    string            35    uvm_test_top.env_h.agent_hm.seqr_hm        
#   Direction                    string            5     WRITE                                      
#   Trans Size                   string            8     HALFWORD                                   
# --------------------------------------------------------------------------------------------------
# 
# UVM_INFO ../slave_agent/apb_slave_drv.sv(119) @ 330: uvm_test_top.env_h.agent_hs_1.drv_hs [apb_slave_drv] WRITE | ADDR=0x67 | DATA=0xf96c | STRB=0x3
# UVM_INFO ../slave_agent/apb_slave_mon.sv(95) @ 350: uvm_test_top.env_h.agent_hs_1.mon_hs [apb_slave_mon] Slave-1 WRITE sampled =
# -------------------------------------------------------
# Name                 Type             Size  Value      
# -------------------------------------------------------
# trans_hs             apb_slave_trans  -     @1831      
#   PADDR              integral         8     'h67       
#   PWDATA             integral         32    'h1605f96c 
#   PRDATA             integral         32    'h0xxxxxxxx
#   PSTRB              integral         4     'h3        
#   PWRITE             integral         1     'h1        
#   PENABLE            integral         1     'h1        
#   PREADY             integral         1     'h1        
#   PSLVERR            integral         1     'h0X       
#   PSEL               da(integral)     0     -          
#   no_of_wait_cycles  integral         32    'd0        
#   wait_enable        integral         1     'dX        
# -------------------------------------------------------
# 
# UVM_INFO ../slave_agent/apb_slave_mon.sv(104) @ 350: uvm_test_top.env_h.agent_hs_1.mon_hs [apb_slave_mon] Slave-1 transaction sent to scoreboard = 
# -------------------------------------------------------
# Name                 Type             Size  Value      
# -------------------------------------------------------
# trans_hs             apb_slave_trans  -     @1831      
#   PADDR              integral         8     'h67       
#   PWDATA             integral         32    'h1605f96c 
#   PRDATA             integral         32    'h0xxxxxxxx
#   PSTRB              integral         4     'h3        
#   PWRITE             integral         1     'h1        
#   PENABLE            integral         1     'h1        
#   PREADY             integral         1     'h1        
#   PSLVERR            integral         1     'h0X       
#   PSEL               da(integral)     0     -          
#   no_of_wait_cycles  integral         32    'd0        
#   wait_enable        integral         1     'dX        
# -------------------------------------------------------
# 
# UVM_INFO ../master_agent/apb_master_drv.sv(161) @ 350: uvm_test_top.env_h.agent_hm.drv_hm [apb_master_drv] [MASTER-TRANS-1] Transfer Complete — MASTER-DRIVER
# --------------------------------------------------------------------------------------------------
# Name                           Type              Size  Value                                      
# --------------------------------------------------------------------------------------------------
# trans_hm                       apb_master_trans  -     @1703                                      
#   PWRITE                       integral          1     'h1                                        
#   PADDR                        integral          8     'h67                                       
#   PWDATA                       integral          32    'h1605f96c                                 
#   PSTRB                        integral          4     'h3                                        
#   PENABLE                      integral          1     'h1                                        
#   PSEL                         da(integral)      4     -                                          
#     [0]                        integral          1     'h0                                        
#     [1]                        integral          1     'h1                                        
#     [2]                        integral          1     'h0                                        
#     [3]                        integral          1     'h0                                        
#   trans_size                   transfer_size_e   2     HALFWORD                                   
#   PREADY                       integral          1     'h0X                                       
#   PRDATA                       integral          32    'h0xxxxxxxx                                
#   PSLVERR                      integral          1     'h0X                                       
#   begin_time                   time              64    50                                         
#   depth                        int               32    'd2                                        
#   parent sequence (name)       string            7     seqs_hm                                    
#   parent sequence (full name)  string            43    uvm_test_top.env_h.agent_hm.seqr_hm.seqs_hm
#   sequencer                    string            35    uvm_test_top.env_h.agent_hm.seqr_hm        
#   Direction                    string            5     WRITE                                      
#   Trans Size                   string            8     HALFWORD                                   
# --------------------------------------------------------------------------------------------------
# 
# UVM_INFO ../slave_agent/apb_slave_drv.sv(67) @ 350: uvm_test_top.env_h.agent_hs_1.drv_hs [apb_slave_drv] Transaction complete at SLAVE-DRIVER =
# ---------------------------------------------------------------------------------------------------------
# Name                           Type             Size  Value                                              
# ---------------------------------------------------------------------------------------------------------
# trans_hs                       apb_slave_trans  -     @1695                                              
#   PADDR                        integral         8     'h0xx                                              
#   PWDATA                       integral         32    'h0xxxxxxxx                                        
#   PRDATA                       integral         32    'h0xxxxxxxx                                        
#   PSTRB                        integral         4     'h0x                                               
#   PWRITE                       integral         1     'h0X                                               
#   PENABLE                      integral         1     'h0X                                               
#   PREADY                       integral         1     'h0X                                               
#   PSLVERR                      integral         1     'h0X                                               
#   PSEL                         da(integral)     0     -                                                  
#   no_of_wait_cycles            integral         32    'd12                                               
#   wait_enable                  integral         1     1                                                  
#   begin_time                   time             64    50                                                 
#   depth                        int              32    'd2                                                
#   parent sequence (name)       string           13    pready_seqs_1                                      
#   parent sequence (full name)  string           51    uvm_test_top.env_h.agent_hs_1.seqr_hs.pready_seqs_1
#   sequencer                    string           37    uvm_test_top.env_h.agent_hs_1.seqr_hs              
# ---------------------------------------------------------------------------------------------------------
# 
# UVM_INFO ../env/apb_sb.sv(127) @ 350: uvm_test_top.env_h.sb_h [apb_sb] Data received from slave 1 monitor = 
# -------------------------------------------------------
# Name                 Type             Size  Value      
# -------------------------------------------------------
# trans_hs             apb_slave_trans  -     @1831      
#   PADDR              integral         8     'h67       
#   PWDATA             integral         32    'h1605f96c 
#   PRDATA             integral         32    'h0xxxxxxxx
#   PSTRB              integral         4     'h3        
#   PWRITE             integral         1     'h1        
#   PENABLE            integral         1     'h1        
#   PREADY             integral         1     'h1        
#   PSLVERR            integral         1     'h0X       
#   PSEL               da(integral)     0     -          
#   no_of_wait_cycles  integral         32    'd0        
#   wait_enable        integral         1     'dX        
# -------------------------------------------------------
# 
# UVM_INFO ../master_agent/apb_master_seqs.sv(30) @ 350: uvm_test_top.env_h.agent_hm.seqr_hm@@seqs_hm [apb_master_seqs] Transaction-1 sent from MASTER SEQS =
# --------------------------------------------------------------------------------------------------
# Name                           Type              Size  Value                                      
# --------------------------------------------------------------------------------------------------
# trans_hm                       apb_master_trans  -     @1703                                      
#   PWRITE                       integral          1     'h1                                        
#   PADDR                        integral          8     'h67                                       
#   PWDATA                       integral          32    'h1605f96c                                 
#   PSTRB                        integral          4     'h3                                        
#   PENABLE                      integral          1     'h1                                        
#   PSEL                         da(integral)      4     -                                          
#     [0]                        integral          1     'h0                                        
#     [1]                        integral          1     'h1                                        
#     [2]                        integral          1     'h0                                        
#     [3]                        integral          1     'h0                                        
#   trans_size                   transfer_size_e   2     HALFWORD                                   
#   PREADY                       integral          1     'h0X                                       
#   PRDATA                       integral          32    'h0xxxxxxxx                                
#   PSLVERR                      integral          1     'h0X                                       
#   begin_time                   time              64    50                                         
#   end_time                     time              64    350                                        
#   depth                        int               32    'd2                                        
#   parent sequence (name)       string            7     seqs_hm                                    
#   parent sequence (full name)  string            43    uvm_test_top.env_h.agent_hm.seqr_hm.seqs_hm
#   sequencer                    string            35    uvm_test_top.env_h.agent_hm.seqr_hm        
#   Direction                    string            5     WRITE                                      
#   Trans Size                   string            8     HALFWORD                                   
# --------------------------------------------------------------------------------------------------
# 
# 
# ---------- Master Transaction : 2 ----------
# 
# UVM_INFO ../TEST//slave_tc/apb_max_pready_seqs.sv(34) @ 350: uvm_test_top.env_h.agent_hs_1.seqr_hs@@pready_seqs_1 [apb_max_pready_seqs] Transaction-1 sent from MASTER SEQS =
# ---------------------------------------------------------------------------------------------------------
# Name                           Type             Size  Value                                              
# ---------------------------------------------------------------------------------------------------------
# trans_hs                       apb_slave_trans  -     @1695                                              
#   PADDR                        integral         8     'h0xx                                              
#   PWDATA                       integral         32    'h0xxxxxxxx                                        
#   PRDATA                       integral         32    'h0xxxxxxxx                                        
#   PSTRB                        integral         4     'h0x                                               
#   PWRITE                       integral         1     'h0X                                               
#   PENABLE                      integral         1     'h0X                                               
#   PREADY                       integral         1     'h0X                                               
#   PSLVERR                      integral         1     'h0X                                               
#   PSEL                         da(integral)     0     -                                                  
#   no_of_wait_cycles            integral         32    'd12                                               
#   wait_enable                  integral         1     1                                                  
#   begin_time                   time             64    50                                                 
#   end_time                     time             64    350                                                
#   depth                        int              32    'd2                                                
#   parent sequence (name)       string           13    pready_seqs_1                                      
#   parent sequence (full name)  string           51    uvm_test_top.env_h.agent_hs_1.seqr_hs.pready_seqs_1
#   sequencer                    string           37    uvm_test_top.env_h.agent_hs_1.seqr_hs              
# ---------------------------------------------------------------------------------------------------------
# 
# 
# ---------- apb_max_pready_seqs transaction : 2 ----------
# 
# UVM_INFO ../slave_agent/apb_slave_drv.sv(58) @ 350: uvm_test_top.env_h.agent_hs_1.drv_hs [apb_slave_drv] Transaction received at SLAVE-DRIVER =
# ---------------------------------------------------------------------------------------------------------
# Name                           Type             Size  Value                                              
# ---------------------------------------------------------------------------------------------------------
# trans_hs                       apb_slave_trans  -     @1853                                              
#   PADDR                        integral         8     'h0xx                                              
#   PWDATA                       integral         32    'h0xxxxxxxx                                        
#   PRDATA                       integral         32    'h0xxxxxxxx                                        
#   PSTRB                        integral         4     'h0x                                               
#   PWRITE                       integral         1     'h0X                                               
#   PENABLE                      integral         1     'h0X                                               
#   PREADY                       integral         1     'h0X                                               
#   PSLVERR                      integral         1     'h0X                                               
#   PSEL                         da(integral)     0     -                                                  
#   no_of_wait_cycles            integral         32    'd12                                               
#   wait_enable                  integral         1     1                                                  
#   begin_time                   time             64    350                                                
#   depth                        int              32    'd2                                                
#   parent sequence (name)       string           13    pready_seqs_1                                      
#   parent sequence (full name)  string           51    uvm_test_top.env_h.agent_hs_1.seqr_hs.pready_seqs_1
#   sequencer                    string           37    uvm_test_top.env_h.agent_hs_1.seqr_hs              
# ---------------------------------------------------------------------------------------------------------
# 
# UVM_INFO ../master_agent/apb_master_drv.sv(151) @ 350: uvm_test_top.env_h.agent_hm.drv_hm [apb_master_drv] [MASTER-TRANS-2] Data Received at MASTER-DRIVER =
# --------------------------------------------------------------------------------------------------
# Name                           Type              Size  Value                                      
# --------------------------------------------------------------------------------------------------
# trans_hm                       apb_master_trans  -     @1848                                      
#   PWRITE                       integral          1     'h1                                        
#   PADDR                        integral          8     'h76                                       
#   PWDATA                       integral          32    'hdb1ba2ff                                 
#   PSTRB                        integral          4     'hf                                        
#   PENABLE                      integral          1     'h1                                        
#   PSEL                         da(integral)      0     -                                          
#   trans_size                   transfer_size_e   2     WORD                                       
#   PREADY                       integral          1     'h0X                                       
#   PRDATA                       integral          32    'h0xxxxxxxx                                
#   PSLVERR                      integral          1     'h0X                                       
#   begin_time                   time              64    350                                        
#   depth                        int               32    'd2                                        
#   parent sequence (name)       string            7     seqs_hm                                    
#   parent sequence (full name)  string            43    uvm_test_top.env_h.agent_hm.seqr_hm.seqs_hm
#   sequencer                    string            35    uvm_test_top.env_h.agent_hm.seqr_hm        
#   Direction                    string            5     WRITE                                      
#   Trans Size                   string            4     WORD                                       
# --------------------------------------------------------------------------------------------------
# 
# UVM_INFO ../slave_agent/apb_slave_drv.sv(119) @ 630: uvm_test_top.env_h.agent_hs_1.drv_hs [apb_slave_drv] WRITE | ADDR=0x76 | DATA=0xdb1ba2ff | STRB=0xf
# UVM_INFO ../slave_agent/apb_slave_mon.sv(95) @ 650: uvm_test_top.env_h.agent_hs_1.mon_hs [apb_slave_mon] Slave-1 WRITE sampled =
# -------------------------------------------------------
# Name                 Type             Size  Value      
# -------------------------------------------------------
# trans_hs             apb_slave_trans  -     @1843      
#   PADDR              integral         8     'h76       
#   PWDATA             integral         32    'hdb1ba2ff 
#   PRDATA             integral         32    'h0xxxxxxxx
#   PSTRB              integral         4     'hf        
#   PWRITE             integral         1     'h1        
#   PENABLE            integral         1     'h1        
#   PREADY             integral         1     'h1        
#   PSLVERR            integral         1     'h0X       
#   PSEL               da(integral)     0     -          
#   no_of_wait_cycles  integral         32    'd0        
#   wait_enable        integral         1     'dX        
# -------------------------------------------------------
# 
# UVM_INFO ../slave_agent/apb_slave_mon.sv(104) @ 650: uvm_test_top.env_h.agent_hs_1.mon_hs [apb_slave_mon] Slave-1 transaction sent to scoreboard = 
# -------------------------------------------------------
# Name                 Type             Size  Value      
# -------------------------------------------------------
# trans_hs             apb_slave_trans  -     @1843      
#   PADDR              integral         8     'h76       
#   PWDATA             integral         32    'hdb1ba2ff 
#   PRDATA             integral         32    'h0xxxxxxxx
#   PSTRB              integral         4     'hf        
#   PWRITE             integral         1     'h1        
#   PENABLE            integral         1     'h1        
#   PREADY             integral         1     'h1        
#   PSLVERR            integral         1     'h0X       
#   PSEL               da(integral)     0     -          
#   no_of_wait_cycles  integral         32    'd0        
#   wait_enable        integral         1     'dX        
# -------------------------------------------------------
# 
# UVM_INFO ../master_agent/apb_master_drv.sv(161) @ 650: uvm_test_top.env_h.agent_hm.drv_hm [apb_master_drv] [MASTER-TRANS-2] Transfer Complete — MASTER-DRIVER
# --------------------------------------------------------------------------------------------------
# Name                           Type              Size  Value                                      
# --------------------------------------------------------------------------------------------------
# trans_hm                       apb_master_trans  -     @1848                                      
#   PWRITE                       integral          1     'h1                                        
#   PADDR                        integral          8     'h76                                       
#   PWDATA                       integral          32    'hdb1ba2ff                                 
#   PSTRB                        integral          4     'hf                                        
#   PENABLE                      integral          1     'h1                                        
#   PSEL                         da(integral)      4     -                                          
#     [0]                        integral          1     'h0                                        
#     [1]                        integral          1     'h1                                        
#     [2]                        integral          1     'h0                                        
#     [3]                        integral          1     'h0                                        
#   trans_size                   transfer_size_e   2     WORD                                       
#   PREADY                       integral          1     'h0X                                       
#   PRDATA                       integral          32    'h0xxxxxxxx                                
#   PSLVERR                      integral          1     'h0X                                       
#   begin_time                   time              64    350                                        
#   depth                        int               32    'd2                                        
#   parent sequence (name)       string            7     seqs_hm                                    
#   parent sequence (full name)  string            43    uvm_test_top.env_h.agent_hm.seqr_hm.seqs_hm
#   sequencer                    string            35    uvm_test_top.env_h.agent_hm.seqr_hm        
#   Direction                    string            5     WRITE                                      
#   Trans Size                   string            4     WORD                                       
# --------------------------------------------------------------------------------------------------
# 
# UVM_INFO ../slave_agent/apb_slave_drv.sv(67) @ 650: uvm_test_top.env_h.agent_hs_1.drv_hs [apb_slave_drv] Transaction complete at SLAVE-DRIVER =
# ---------------------------------------------------------------------------------------------------------
# Name                           Type             Size  Value                                              
# ---------------------------------------------------------------------------------------------------------
# trans_hs                       apb_slave_trans  -     @1853                                              
#   PADDR                        integral         8     'h0xx                                              
#   PWDATA                       integral         32    'h0xxxxxxxx                                        
#   PRDATA                       integral         32    'h0xxxxxxxx                                        
#   PSTRB                        integral         4     'h0x                                               
#   PWRITE                       integral         1     'h0X                                               
#   PENABLE                      integral         1     'h0X                                               
#   PREADY                       integral         1     'h0X                                               
#   PSLVERR                      integral         1     'h0X                                               
#   PSEL                         da(integral)     0     -                                                  
#   no_of_wait_cycles            integral         32    'd12                                               
#   wait_enable                  integral         1     1                                                  
#   begin_time                   time             64    350                                                
#   depth                        int              32    'd2                                                
#   parent sequence (name)       string           13    pready_seqs_1                                      
#   parent sequence (full name)  string           51    uvm_test_top.env_h.agent_hs_1.seqr_hs.pready_seqs_1
#   sequencer                    string           37    uvm_test_top.env_h.agent_hs_1.seqr_hs              
# ---------------------------------------------------------------------------------------------------------
# 
# UVM_INFO ../env/apb_sb.sv(127) @ 650: uvm_test_top.env_h.sb_h [apb_sb] Data received from slave 1 monitor = 
# -------------------------------------------------------
# Name                 Type             Size  Value      
# -------------------------------------------------------
# trans_hs             apb_slave_trans  -     @1843      
#   PADDR              integral         8     'h76       
#   PWDATA             integral         32    'hdb1ba2ff 
#   PRDATA             integral         32    'h0xxxxxxxx
#   PSTRB              integral         4     'hf        
#   PWRITE             integral         1     'h1        
#   PENABLE            integral         1     'h1        
#   PREADY             integral         1     'h1        
#   PSLVERR            integral         1     'h0X       
#   PSEL               da(integral)     0     -          
#   no_of_wait_cycles  integral         32    'd0        
#   wait_enable        integral         1     'dX        
# -------------------------------------------------------
# 
# UVM_INFO ../master_agent/apb_master_seqs.sv(30) @ 650: uvm_test_top.env_h.agent_hm.seqr_hm@@seqs_hm [apb_master_seqs] Transaction-2 sent from MASTER SEQS =
# --------------------------------------------------------------------------------------------------
# Name                           Type              Size  Value                                      
# --------------------------------------------------------------------------------------------------
# trans_hm                       apb_master_trans  -     @1848                                      
#   PWRITE                       integral          1     'h1                                        
#   PADDR                        integral          8     'h76                                       
#   PWDATA                       integral          32    'hdb1ba2ff                                 
#   PSTRB                        integral          4     'hf                                        
#   PENABLE                      integral          1     'h1                                        
#   PSEL                         da(integral)      4     -                                          
#     [0]                        integral          1     'h0                                        
#     [1]                        integral          1     'h1                                        
#     [2]                        integral          1     'h0                                        
#     [3]                        integral          1     'h0                                        
#   trans_size                   transfer_size_e   2     WORD                                       
#   PREADY                       integral          1     'h0X                                       
#   PRDATA                       integral          32    'h0xxxxxxxx                                
#   PSLVERR                      integral          1     'h0X                                       
#   begin_time                   time              64    350                                        
#   end_time                     time              64    650                                        
#   depth                        int               32    'd2                                        
#   parent sequence (name)       string            7     seqs_hm                                    
#   parent sequence (full name)  string            43    uvm_test_top.env_h.agent_hm.seqr_hm.seqs_hm
#   sequencer                    string            35    uvm_test_top.env_h.agent_hm.seqr_hm        
#   Direction                    string            5     WRITE                                      
#   Trans Size                   string            4     WORD                                       
# --------------------------------------------------------------------------------------------------
# 
# 
# ---------- Master Transaction : 3 ----------
# 
# UVM_INFO ../TEST//slave_tc/apb_max_pready_seqs.sv(34) @ 650: uvm_test_top.env_h.agent_hs_1.seqr_hs@@pready_seqs_1 [apb_max_pready_seqs] Transaction-2 sent from MASTER SEQS =
# ---------------------------------------------------------------------------------------------------------
# Name                           Type             Size  Value                                              
# ---------------------------------------------------------------------------------------------------------
# trans_hs                       apb_slave_trans  -     @1853                                              
#   PADDR                        integral         8     'h0xx                                              
#   PWDATA                       integral         32    'h0xxxxxxxx                                        
#   PRDATA                       integral         32    'h0xxxxxxxx                                        
#   PSTRB                        integral         4     'h0x                                               
#   PWRITE                       integral         1     'h0X                                               
#   PENABLE                      integral         1     'h0X                                               
#   PREADY                       integral         1     'h0X                                               
#   PSLVERR                      integral         1     'h0X                                               
#   PSEL                         da(integral)     0     -                                                  
#   no_of_wait_cycles            integral         32    'd12                                               
#   wait_enable                  integral         1     1                                                  
#   begin_time                   time             64    350                                                
#   end_time                     time             64    650                                                
#   depth                        int              32    'd2                                                
#   parent sequence (name)       string           13    pready_seqs_1                                      
#   parent sequence (full name)  string           51    uvm_test_top.env_h.agent_hs_1.seqr_hs.pready_seqs_1
#   sequencer                    string           37    uvm_test_top.env_h.agent_hs_1.seqr_hs              
# ---------------------------------------------------------------------------------------------------------
# 
# 
# ---------- apb_max_pready_seqs transaction : 3 ----------
# 
# UVM_INFO ../slave_agent/apb_slave_drv.sv(58) @ 650: uvm_test_top.env_h.agent_hs_1.drv_hs [apb_slave_drv] Transaction received at SLAVE-DRIVER =
# ---------------------------------------------------------------------------------------------------------
# Name                           Type             Size  Value                                              
# ---------------------------------------------------------------------------------------------------------
# trans_hs                       apb_slave_trans  -     @1865                                              
#   PADDR                        integral         8     'h0xx                                              
#   PWDATA                       integral         32    'h0xxxxxxxx                                        
#   PRDATA                       integral         32    'h0xxxxxxxx                                        
#   PSTRB                        integral         4     'h0x                                               
#   PWRITE                       integral         1     'h0X                                               
#   PENABLE                      integral         1     'h0X                                               
#   PREADY                       integral         1     'h0X                                               
#   PSLVERR                      integral         1     'h0X                                               
#   PSEL                         da(integral)     0     -                                                  
#   no_of_wait_cycles            integral         32    'd12                                               
#   wait_enable                  integral         1     1                                                  
#   begin_time                   time             64    650                                                
#   depth                        int              32    'd2                                                
#   parent sequence (name)       string           13    pready_seqs_1                                      
#   parent sequence (full name)  string           51    uvm_test_top.env_h.agent_hs_1.seqr_hs.pready_seqs_1
#   sequencer                    string           37    uvm_test_top.env_h.agent_hs_1.seqr_hs              
# ---------------------------------------------------------------------------------------------------------
# 
# UVM_INFO ../master_agent/apb_master_drv.sv(151) @ 650: uvm_test_top.env_h.agent_hm.drv_hm [apb_master_drv] [MASTER-TRANS-3] Data Received at MASTER-DRIVER =
# --------------------------------------------------------------------------------------------------
# Name                           Type              Size  Value                                      
# --------------------------------------------------------------------------------------------------
# trans_hm                       apb_master_trans  -     @1861                                      
#   PWRITE                       integral          1     'h1                                        
#   PADDR                        integral          8     'hfe                                       
#   PWDATA                       integral          32    'h1a3658c8                                 
#   PSTRB                        integral          4     'hf                                        
#   PENABLE                      integral          1     'h1                                        
#   PSEL                         da(integral)      0     -                                          
#   trans_size                   transfer_size_e   2     WORD                                       
#   PREADY                       integral          1     'h0X                                       
#   PRDATA                       integral          32    'h0xxxxxxxx                                
#   PSLVERR                      integral          1     'h0X                                       
#   begin_time                   time              64    650                                        
#   depth                        int               32    'd2                                        
#   parent sequence (name)       string            7     seqs_hm                                    
#   parent sequence (full name)  string            43    uvm_test_top.env_h.agent_hm.seqr_hm.seqs_hm
#   sequencer                    string            35    uvm_test_top.env_h.agent_hm.seqr_hm        
#   Direction                    string            5     WRITE                                      
#   Trans Size                   string            4     WORD                                       
# --------------------------------------------------------------------------------------------------
# 
# UVM_INFO ../slave_agent/apb_slave_drv.sv(119) @ 930: uvm_test_top.env_h.agent_hs_3.drv_hs [apb_slave_drv] WRITE | ADDR=0xfe | DATA=0x1a3658c8 | STRB=0xf
# UVM_INFO ../slave_agent/apb_slave_mon.sv(95) @ 950: uvm_test_top.env_h.agent_hs_3.mon_hs [apb_slave_mon] Slave-3 WRITE sampled =
# -------------------------------------------------------
# Name                 Type             Size  Value      
# -------------------------------------------------------
# trans_hs             apb_slave_trans  -     @1839      
#   PADDR              integral         8     'hfe       
#   PWDATA             integral         32    'h1a3658c8 
#   PRDATA             integral         32    'h0xxxxxxxx
#   PSTRB              integral         4     'hf        
#   PWRITE             integral         1     'h1        
#   PENABLE            integral         1     'h1        
#   PREADY             integral         1     'h1        
#   PSLVERR            integral         1     'h0X       
#   PSEL               da(integral)     0     -          
#   no_of_wait_cycles  integral         32    'd0        
#   wait_enable        integral         1     'dX        
# -------------------------------------------------------
# 
# UVM_INFO ../slave_agent/apb_slave_mon.sv(104) @ 950: uvm_test_top.env_h.agent_hs_3.mon_hs [apb_slave_mon] Slave-3 transaction sent to scoreboard = 
# -------------------------------------------------------
# Name                 Type             Size  Value      
# -------------------------------------------------------
# trans_hs             apb_slave_trans  -     @1839      
#   PADDR              integral         8     'hfe       
#   PWDATA             integral         32    'h1a3658c8 
#   PRDATA             integral         32    'h0xxxxxxxx
#   PSTRB              integral         4     'hf        
#   PWRITE             integral         1     'h1        
#   PENABLE            integral         1     'h1        
#   PREADY             integral         1     'h1        
#   PSLVERR            integral         1     'h0X       
#   PSEL               da(integral)     0     -          
#   no_of_wait_cycles  integral         32    'd0        
#   wait_enable        integral         1     'dX        
# -------------------------------------------------------
# 
# UVM_INFO ../master_agent/apb_master_drv.sv(161) @ 950: uvm_test_top.env_h.agent_hm.drv_hm [apb_master_drv] [MASTER-TRANS-3] Transfer Complete — MASTER-DRIVER
# --------------------------------------------------------------------------------------------------
# Name                           Type              Size  Value                                      
# --------------------------------------------------------------------------------------------------
# trans_hm                       apb_master_trans  -     @1861                                      
#   PWRITE                       integral          1     'h1                                        
#   PADDR                        integral          8     'hfe                                       
#   PWDATA                       integral          32    'h1a3658c8                                 
#   PSTRB                        integral          4     'hf                                        
#   PENABLE                      integral          1     'h1                                        
#   PSEL                         da(integral)      4     -                                          
#     [0]                        integral          1     'h0                                        
#     [1]                        integral          1     'h0                                        
#     [2]                        integral          1     'h0                                        
#     [3]                        integral          1     'h1                                        
#   trans_size                   transfer_size_e   2     WORD                                       
#   PREADY                       integral          1     'h0X                                       
#   PRDATA                       integral          32    'h0xxxxxxxx                                
#   PSLVERR                      integral          1     'h0X                                       
#   begin_time                   time              64    650                                        
#   depth                        int               32    'd2                                        
#   parent sequence (name)       string            7     seqs_hm                                    
#   parent sequence (full name)  string            43    uvm_test_top.env_h.agent_hm.seqr_hm.seqs_hm
#   sequencer                    string            35    uvm_test_top.env_h.agent_hm.seqr_hm        
#   Direction                    string            5     WRITE                                      
#   Trans Size                   string            4     WORD                                       
# --------------------------------------------------------------------------------------------------
# 
# UVM_INFO ../slave_agent/apb_slave_drv.sv(67) @ 950: uvm_test_top.env_h.agent_hs_3.drv_hs [apb_slave_drv] Transaction complete at SLAVE-DRIVER =
# ---------------------------------------------------------------------------------------------------------
# Name                           Type             Size  Value                                              
# ---------------------------------------------------------------------------------------------------------
# trans_hs                       apb_slave_trans  -     @1687                                              
#   PADDR                        integral         8     'h0xx                                              
#   PWDATA                       integral         32    'h0xxxxxxxx                                        
#   PRDATA                       integral         32    'h0xxxxxxxx                                        
#   PSTRB                        integral         4     'h0x                                               
#   PWRITE                       integral         1     'h0X                                               
#   PENABLE                      integral         1     'h0X                                               
#   PREADY                       integral         1     'h0X                                               
#   PSLVERR                      integral         1     'h0X                                               
#   PSEL                         da(integral)     0     -                                                  
#   no_of_wait_cycles            integral         32    'd12                                               
#   wait_enable                  integral         1     1                                                  
#   begin_time                   time             64    50                                                 
#   depth                        int              32    'd2                                                
#   parent sequence (name)       string           13    pready_seqs_3                                      
#   parent sequence (full name)  string           51    uvm_test_top.env_h.agent_hs_3.seqr_hs.pready_seqs_3
#   sequencer                    string           37    uvm_test_top.env_h.agent_hs_3.seqr_hs              
# ---------------------------------------------------------------------------------------------------------
# 
# UVM_INFO ../env/apb_sb.sv(127) @ 950: uvm_test_top.env_h.sb_h [apb_sb] Data received from slave 3 monitor = 
# -------------------------------------------------------
# Name                 Type             Size  Value      
# -------------------------------------------------------
# trans_hs             apb_slave_trans  -     @1839      
#   PADDR              integral         8     'hfe       
#   PWDATA             integral         32    'h1a3658c8 
#   PRDATA             integral         32    'h0xxxxxxxx
#   PSTRB              integral         4     'hf        
#   PWRITE             integral         1     'h1        
#   PENABLE            integral         1     'h1        
#   PREADY             integral         1     'h1        
#   PSLVERR            integral         1     'h0X       
#   PSEL               da(integral)     0     -          
#   no_of_wait_cycles  integral         32    'd0        
#   wait_enable        integral         1     'dX        
# -------------------------------------------------------
# 
# UVM_INFO ../master_agent/apb_master_seqs.sv(30) @ 950: uvm_test_top.env_h.agent_hm.seqr_hm@@seqs_hm [apb_master_seqs] Transaction-3 sent from MASTER SEQS =
# --------------------------------------------------------------------------------------------------
# Name                           Type              Size  Value                                      
# --------------------------------------------------------------------------------------------------
# trans_hm                       apb_master_trans  -     @1861                                      
#   PWRITE                       integral          1     'h1                                        
#   PADDR                        integral          8     'hfe                                       
#   PWDATA                       integral          32    'h1a3658c8                                 
#   PSTRB                        integral          4     'hf                                        
#   PENABLE                      integral          1     'h1                                        
#   PSEL                         da(integral)      4     -                                          
#     [0]                        integral          1     'h0                                        
#     [1]                        integral          1     'h0                                        
#     [2]                        integral          1     'h0                                        
#     [3]                        integral          1     'h1                                        
#   trans_size                   transfer_size_e   2     WORD                                       
#   PREADY                       integral          1     'h0X                                       
#   PRDATA                       integral          32    'h0xxxxxxxx                                
#   PSLVERR                      integral          1     'h0X                                       
#   begin_time                   time              64    650                                        
#   end_time                     time              64    950                                        
#   depth                        int               32    'd2                                        
#   parent sequence (name)       string            7     seqs_hm                                    
#   parent sequence (full name)  string            43    uvm_test_top.env_h.agent_hm.seqr_hm.seqs_hm
#   sequencer                    string            35    uvm_test_top.env_h.agent_hm.seqr_hm        
#   Direction                    string            5     WRITE                                      
#   Trans Size                   string            4     WORD                                       
# --------------------------------------------------------------------------------------------------
# 
# 
# ---------- Master Transaction : 4 ----------
# 
# UVM_INFO ../TEST//slave_tc/apb_max_pready_seqs.sv(34) @ 950: uvm_test_top.env_h.agent_hs_3.seqr_hs@@pready_seqs_3 [apb_max_pready_seqs] Transaction-3 sent from MASTER SEQS =
# ---------------------------------------------------------------------------------------------------------
# Name                           Type             Size  Value                                              
# ---------------------------------------------------------------------------------------------------------
# trans_hs                       apb_slave_trans  -     @1687                                              
#   PADDR                        integral         8     'h0xx                                              
#   PWDATA                       integral         32    'h0xxxxxxxx                                        
#   PRDATA                       integral         32    'h0xxxxxxxx                                        
#   PSTRB                        integral         4     'h0x                                               
#   PWRITE                       integral         1     'h0X                                               
#   PENABLE                      integral         1     'h0X                                               
#   PREADY                       integral         1     'h0X                                               
#   PSLVERR                      integral         1     'h0X                                               
#   PSEL                         da(integral)     0     -                                                  
#   no_of_wait_cycles            integral         32    'd12                                               
#   wait_enable                  integral         1     1                                                  
#   begin_time                   time             64    50                                                 
#   end_time                     time             64    950                                                
#   depth                        int              32    'd2                                                
#   parent sequence (name)       string           13    pready_seqs_3                                      
#   parent sequence (full name)  string           51    uvm_test_top.env_h.agent_hs_3.seqr_hs.pready_seqs_3
#   sequencer                    string           37    uvm_test_top.env_h.agent_hs_3.seqr_hs              
# ---------------------------------------------------------------------------------------------------------
# 
# 
# ---------- apb_max_pready_seqs transaction : 4 ----------
# 
# UVM_INFO ../slave_agent/apb_slave_drv.sv(58) @ 950: uvm_test_top.env_h.agent_hs_3.drv_hs [apb_slave_drv] Transaction received at SLAVE-DRIVER =
# ---------------------------------------------------------------------------------------------------------
# Name                           Type             Size  Value                                              
# ---------------------------------------------------------------------------------------------------------
# trans_hs                       apb_slave_trans  -     @1878                                              
#   PADDR                        integral         8     'h0xx                                              
#   PWDATA                       integral         32    'h0xxxxxxxx                                        
#   PRDATA                       integral         32    'h0xxxxxxxx                                        
#   PSTRB                        integral         4     'h0x                                               
#   PWRITE                       integral         1     'h0X                                               
#   PENABLE                      integral         1     'h0X                                               
#   PREADY                       integral         1     'h0X                                               
#   PSLVERR                      integral         1     'h0X                                               
#   PSEL                         da(integral)     0     -                                                  
#   no_of_wait_cycles            integral         32    'd12                                               
#   wait_enable                  integral         1     1                                                  
#   begin_time                   time             64    950                                                
#   depth                        int              32    'd2                                                
#   parent sequence (name)       string           13    pready_seqs_3                                      
#   parent sequence (full name)  string           51    uvm_test_top.env_h.agent_hs_3.seqr_hs.pready_seqs_3
#   sequencer                    string           37    uvm_test_top.env_h.agent_hs_3.seqr_hs              
# ---------------------------------------------------------------------------------------------------------
# 
# UVM_INFO ../master_agent/apb_master_drv.sv(151) @ 950: uvm_test_top.env_h.agent_hm.drv_hm [apb_master_drv] [MASTER-TRANS-4] Data Received at MASTER-DRIVER =
# --------------------------------------------------------------------------------------------------
# Name                           Type              Size  Value                                      
# --------------------------------------------------------------------------------------------------
# trans_hm                       apb_master_trans  -     @1873                                      
#   PWRITE                       integral          1     'h1                                        
#   PADDR                        integral          8     'hea                                       
#   PWDATA                       integral          32    'ha34e541f                                 
#   PSTRB                        integral          4     'h3                                        
#   PENABLE                      integral          1     'h1                                        
#   PSEL                         da(integral)      0     -                                          
#   trans_size                   transfer_size_e   2     HALFWORD                                   
#   PREADY                       integral          1     'h0X                                       
#   PRDATA                       integral          32    'h0xxxxxxxx                                
#   PSLVERR                      integral          1     'h0X                                       
#   begin_time                   time              64    950                                        
#   depth                        int               32    'd2                                        
#   parent sequence (name)       string            7     seqs_hm                                    
#   parent sequence (full name)  string            43    uvm_test_top.env_h.agent_hm.seqr_hm.seqs_hm
#   sequencer                    string            35    uvm_test_top.env_h.agent_hm.seqr_hm        
#   Direction                    string            5     WRITE                                      
#   Trans Size                   string            8     HALFWORD                                   
# --------------------------------------------------------------------------------------------------
# 
# UVM_INFO ../slave_agent/apb_slave_drv.sv(119) @ 1230: uvm_test_top.env_h.agent_hs_3.drv_hs [apb_slave_drv] WRITE | ADDR=0xea | DATA=0x541f | STRB=0x3
# UVM_INFO ../slave_agent/apb_slave_mon.sv(95) @ 1250: uvm_test_top.env_h.agent_hs_3.mon_hs [apb_slave_mon] Slave-3 WRITE sampled =
# -------------------------------------------------------
# Name                 Type             Size  Value      
# -------------------------------------------------------
# trans_hs             apb_slave_trans  -     @1869      
#   PADDR              integral         8     'hea       
#   PWDATA             integral         32    'ha34e541f 
#   PRDATA             integral         32    'h0xxxxxxxx
#   PSTRB              integral         4     'h3        
#   PWRITE             integral         1     'h1        
#   PENABLE            integral         1     'h1        
#   PREADY             integral         1     'h1        
#   PSLVERR            integral         1     'h0X       
#   PSEL               da(integral)     0     -          
#   no_of_wait_cycles  integral         32    'd0        
#   wait_enable        integral         1     'dX        
# -------------------------------------------------------
# 
# UVM_INFO ../slave_agent/apb_slave_mon.sv(104) @ 1250: uvm_test_top.env_h.agent_hs_3.mon_hs [apb_slave_mon] Slave-3 transaction sent to scoreboard = 
# -------------------------------------------------------
# Name                 Type             Size  Value      
# -------------------------------------------------------
# trans_hs             apb_slave_trans  -     @1869      
#   PADDR              integral         8     'hea       
#   PWDATA             integral         32    'ha34e541f 
#   PRDATA             integral         32    'h0xxxxxxxx
#   PSTRB              integral         4     'h3        
#   PWRITE             integral         1     'h1        
#   PENABLE            integral         1     'h1        
#   PREADY             integral         1     'h1        
#   PSLVERR            integral         1     'h0X       
#   PSEL               da(integral)     0     -          
#   no_of_wait_cycles  integral         32    'd0        
#   wait_enable        integral         1     'dX        
# -------------------------------------------------------
# 
# UVM_INFO ../master_agent/apb_master_drv.sv(161) @ 1250: uvm_test_top.env_h.agent_hm.drv_hm [apb_master_drv] [MASTER-TRANS-4] Transfer Complete — MASTER-DRIVER
# --------------------------------------------------------------------------------------------------
# Name                           Type              Size  Value                                      
# --------------------------------------------------------------------------------------------------
# trans_hm                       apb_master_trans  -     @1873                                      
#   PWRITE                       integral          1     'h1                                        
#   PADDR                        integral          8     'hea                                       
#   PWDATA                       integral          32    'ha34e541f                                 
#   PSTRB                        integral          4     'h3                                        
#   PENABLE                      integral          1     'h1                                        
#   PSEL                         da(integral)      4     -                                          
#     [0]                        integral          1     'h0                                        
#     [1]                        integral          1     'h0                                        
#     [2]                        integral          1     'h0                                        
#     [3]                        integral          1     'h1                                        
#   trans_size                   transfer_size_e   2     HALFWORD                                   
#   PREADY                       integral          1     'h0X                                       
#   PRDATA                       integral          32    'h0xxxxxxxx                                
#   PSLVERR                      integral          1     'h0X                                       
#   begin_time                   time              64    950                                        
#   depth                        int               32    'd2                                        
#   parent sequence (name)       string            7     seqs_hm                                    
#   parent sequence (full name)  string            43    uvm_test_top.env_h.agent_hm.seqr_hm.seqs_hm
#   sequencer                    string            35    uvm_test_top.env_h.agent_hm.seqr_hm        
#   Direction                    string            5     WRITE                                      
#   Trans Size                   string            8     HALFWORD                                   
# --------------------------------------------------------------------------------------------------
# 
# UVM_INFO ../slave_agent/apb_slave_drv.sv(67) @ 1250: uvm_test_top.env_h.agent_hs_3.drv_hs [apb_slave_drv] Transaction complete at SLAVE-DRIVER =
# ---------------------------------------------------------------------------------------------------------
# Name                           Type             Size  Value                                              
# ---------------------------------------------------------------------------------------------------------
# trans_hs                       apb_slave_trans  -     @1878                                              
#   PADDR                        integral         8     'h0xx                                              
#   PWDATA                       integral         32    'h0xxxxxxxx                                        
#   PRDATA                       integral         32    'h0xxxxxxxx                                        
#   PSTRB                        integral         4     'h0x                                               
#   PWRITE                       integral         1     'h0X                                               
#   PENABLE                      integral         1     'h0X                                               
#   PREADY                       integral         1     'h0X                                               
#   PSLVERR                      integral         1     'h0X                                               
#   PSEL                         da(integral)     0     -                                                  
#   no_of_wait_cycles            integral         32    'd12                                               
#   wait_enable                  integral         1     1                                                  
#   begin_time                   time             64    950                                                
#   depth                        int              32    'd2                                                
#   parent sequence (name)       string           13    pready_seqs_3                                      
#   parent sequence (full name)  string           51    uvm_test_top.env_h.agent_hs_3.seqr_hs.pready_seqs_3
#   sequencer                    string           37    uvm_test_top.env_h.agent_hs_3.seqr_hs              
# ---------------------------------------------------------------------------------------------------------
# 
# UVM_INFO ../env/apb_sb.sv(127) @ 1250: uvm_test_top.env_h.sb_h [apb_sb] Data received from slave 3 monitor = 
# -------------------------------------------------------
# Name                 Type             Size  Value      
# -------------------------------------------------------
# trans_hs             apb_slave_trans  -     @1869      
#   PADDR              integral         8     'hea       
#   PWDATA             integral         32    'ha34e541f 
#   PRDATA             integral         32    'h0xxxxxxxx
#   PSTRB              integral         4     'h3        
#   PWRITE             integral         1     'h1        
#   PENABLE            integral         1     'h1        
#   PREADY             integral         1     'h1        
#   PSLVERR            integral         1     'h0X       
#   PSEL               da(integral)     0     -          
#   no_of_wait_cycles  integral         32    'd0        
#   wait_enable        integral         1     'dX        
# -------------------------------------------------------
# 
# UVM_INFO ../master_agent/apb_master_seqs.sv(30) @ 1250: uvm_test_top.env_h.agent_hm.seqr_hm@@seqs_hm [apb_master_seqs] Transaction-4 sent from MASTER SEQS =
# --------------------------------------------------------------------------------------------------
# Name                           Type              Size  Value                                      
# --------------------------------------------------------------------------------------------------
# trans_hm                       apb_master_trans  -     @1873                                      
#   PWRITE                       integral          1     'h1                                        
#   PADDR                        integral          8     'hea                                       
#   PWDATA                       integral          32    'ha34e541f                                 
#   PSTRB                        integral          4     'h3                                        
#   PENABLE                      integral          1     'h1                                        
#   PSEL                         da(integral)      4     -                                          
#     [0]                        integral          1     'h0                                        
#     [1]                        integral          1     'h0                                        
#     [2]                        integral          1     'h0                                        
#     [3]                        integral          1     'h1                                        
#   trans_size                   transfer_size_e   2     HALFWORD                                   
#   PREADY                       integral          1     'h0X                                       
#   PRDATA                       integral          32    'h0xxxxxxxx                                
#   PSLVERR                      integral          1     'h0X                                       
#   begin_time                   time              64    950                                        
#   end_time                     time              64    1250                                       
#   depth                        int               32    'd2                                        
#   parent sequence (name)       string            7     seqs_hm                                    
#   parent sequence (full name)  string            43    uvm_test_top.env_h.agent_hm.seqr_hm.seqs_hm
#   sequencer                    string            35    uvm_test_top.env_h.agent_hm.seqr_hm        
#   Direction                    string            5     WRITE                                      
#   Trans Size                   string            8     HALFWORD                                   
# --------------------------------------------------------------------------------------------------
# 
# 
# ---------- Master Transaction : 5 ----------
# 
# UVM_INFO ../TEST//slave_tc/apb_max_pready_seqs.sv(34) @ 1250: uvm_test_top.env_h.agent_hs_3.seqr_hs@@pready_seqs_3 [apb_max_pready_seqs] Transaction-4 sent from MASTER SEQS =
# ---------------------------------------------------------------------------------------------------------
# Name                           Type             Size  Value                                              
# ---------------------------------------------------------------------------------------------------------
# trans_hs                       apb_slave_trans  -     @1878                                              
#   PADDR                        integral         8     'h0xx                                              
#   PWDATA                       integral         32    'h0xxxxxxxx                                        
#   PRDATA                       integral         32    'h0xxxxxxxx                                        
#   PSTRB                        integral         4     'h0x                                               
#   PWRITE                       integral         1     'h0X                                               
#   PENABLE                      integral         1     'h0X                                               
#   PREADY                       integral         1     'h0X                                               
#   PSLVERR                      integral         1     'h0X                                               
#   PSEL                         da(integral)     0     -                                                  
#   no_of_wait_cycles            integral         32    'd12                                               
#   wait_enable                  integral         1     1                                                  
#   begin_time                   time             64    950                                                
#   end_time                     time             64    1250                                               
#   depth                        int              32    'd2                                                
#   parent sequence (name)       string           13    pready_seqs_3                                      
#   parent sequence (full name)  string           51    uvm_test_top.env_h.agent_hs_3.seqr_hs.pready_seqs_3
#   sequencer                    string           37    uvm_test_top.env_h.agent_hs_3.seqr_hs              
# ---------------------------------------------------------------------------------------------------------
# 
# 
# ---------- apb_max_pready_seqs transaction : 5 ----------
# 
# UVM_INFO ../slave_agent/apb_slave_drv.sv(58) @ 1250: uvm_test_top.env_h.agent_hs_3.drv_hs [apb_slave_drv] Transaction received at SLAVE-DRIVER =
# ---------------------------------------------------------------------------------------------------------
# Name                           Type             Size  Value                                              
# ---------------------------------------------------------------------------------------------------------
# trans_hs                       apb_slave_trans  -     @1890                                              
#   PADDR                        integral         8     'h0xx                                              
#   PWDATA                       integral         32    'h0xxxxxxxx                                        
#   PRDATA                       integral         32    'h0xxxxxxxx                                        
#   PSTRB                        integral         4     'h0x                                               
#   PWRITE                       integral         1     'h0X                                               
#   PENABLE                      integral         1     'h0X                                               
#   PREADY                       integral         1     'h0X                                               
#   PSLVERR                      integral         1     'h0X                                               
#   PSEL                         da(integral)     0     -                                                  
#   no_of_wait_cycles            integral         32    'd12                                               
#   wait_enable                  integral         1     1                                                  
#   begin_time                   time             64    1250                                               
#   depth                        int              32    'd2                                                
#   parent sequence (name)       string           13    pready_seqs_3                                      
#   parent sequence (full name)  string           51    uvm_test_top.env_h.agent_hs_3.seqr_hs.pready_seqs_3
#   sequencer                    string           37    uvm_test_top.env_h.agent_hs_3.seqr_hs              
# ---------------------------------------------------------------------------------------------------------
# 
# UVM_INFO ../master_agent/apb_master_drv.sv(151) @ 1250: uvm_test_top.env_h.agent_hm.drv_hm [apb_master_drv] [MASTER-TRANS-5] Data Received at MASTER-DRIVER =
# --------------------------------------------------------------------------------------------------
