# vsim -vopt apb_top -c -do "run -all; exit" 
# Start time: 15:45:48 on Jun 05,2026
# ** Note: (vsim-3813) Design is being optimized due to module recompilation...
# //  Questa Sim-64
# //  Version 10.7c win64 Aug 18 2018
# //
# //  Copyright 1991-2018 Mentor Graphics Corporation
# //  All Rights Reserved.
# //
# //  QuestaSim and its associated documentation contain trade
# //  secrets and commercial or financial information that are the property of
# //  Mentor Graphics Corporation and are privileged, confidential,
# //  and exempt from disclosure under the Freedom of Information Act,
# //  5 U.S.C. Section 552. Furthermore, this information
# //  is prohibited from disclosure under the Trade Secrets Act,
# //  18 U.S.C. Section 1905.
# //
# Loading sv_std.std
# Loading work.apb_inf(fast)
# Loading mtiUvm.uvm_pkg
# Loading work.apb_pkg(fast)
# Loading work.apb_top_sv_unit(fast)
# Loading work.apb_top(fast)
# Loading work.apb_pkg_sv_unit(fast)
# Loading work.apb_inf(fast)
# Loading mtiUvm.questa_uvm_pkg(fast)
# Loading C:/questasim64_10.7c/uvm-1.1d\win64\uvm_dpi.dll
# run -all
# ----------------------------------------------------------------
# UVM-1.1d
# (C) 2007-2013 Mentor Graphics Corporation
# (C) 2007-2013 Cadence Design Systems, Inc.
# (C) 2006-2013 Synopsys, Inc.
# (C) 2011-2013 Cypress Semiconductor Corp.
# ----------------------------------------------------------------
# 
#   ***********       IMPORTANT RELEASE NOTES         ************
# 
#   You are using a version of the UVM library that has been compiled
#   with `UVM_NO_DEPRECATED undefined.
#   See http://www.eda.org/svdb/view.php?id=3313 for more details.
# 
#   You are using a version of the UVM library that has been compiled
#   with `UVM_OBJECT_MUST_HAVE_CONSTRUCTOR undefined.
#   See http://www.eda.org/svdb/view.php?id=3770 for more details.
# 
#       (Specify +UVM_NO_RELNOTES to turn off this notice)
# 
# UVM_INFO verilog_src/questa_uvm_pkg-1.2/src/questa_uvm_pkg.sv(215) @ 0: reporter [Questa UVM] QUESTA_UVM-1.2.3
# UVM_INFO verilog_src/questa_uvm_pkg-1.2/src/questa_uvm_pkg.sv(216) @ 0: reporter [Questa UVM]  questa_uvm::init(+struct)
# UVM_INFO @ 0: reporter [RNTST] Running test apb_base_test...
# UVM_INFO ../test/apb_base_test.sv(59) @ 0: uvm_test_top [apb_base_test] Build-Phase complete in Test
# UVM_INFO ../env/apb_env.sv(58) @ 0: uvm_test_top.env_h [apb_env] ENV built | slaves=3
# UVM_INFO ../master_agent/apb_master_agent.sv(23) @ 0: uvm_test_top.env_h.agent_hm [apb_master_agent] Executing Build-Phase in Master Agent
# UVM_INFO ../master_agent/apb_master_agent.sv(39) @ 0: uvm_test_top.env_h.agent_hm [apb_master_agent] Build-Phase Complete in Master Agent
# ------ Execution Done Build-Phase in Master Driver -------
# UVM_INFO ../slave_agent/apb_slave_agent.sv(25) @ 0: uvm_test_top.env_h.agent_hs_0 [apb_slave_agent] Executing Build-Phase in Slave Agent
# UVM_INFO ../slave_agent/apb_slave_agent.sv(41) @ 0: uvm_test_top.env_h.agent_hs_0 [apb_slave_agent] Build-Phase Complete in Slave Agent
# UVM_INFO ../slave_agent/apb_slave_drv.sv(30) @ 0: uvm_test_top.env_h.agent_hs_0.drv_hs [apb_slave_drv] Build-Phase Complete in Slave Driver
# UVM_INFO ../slave_agent/apb_slave_agent.sv(25) @ 0: uvm_test_top.env_h.agent_hs_1 [apb_slave_agent] Executing Build-Phase in Slave Agent
# UVM_INFO ../slave_agent/apb_slave_agent.sv(41) @ 0: uvm_test_top.env_h.agent_hs_1 [apb_slave_agent] Build-Phase Complete in Slave Agent
# UVM_INFO ../slave_agent/apb_slave_drv.sv(30) @ 0: uvm_test_top.env_h.agent_hs_1.drv_hs [apb_slave_drv] Build-Phase Complete in Slave Driver
# UVM_INFO ../slave_agent/apb_slave_agent.sv(25) @ 0: uvm_test_top.env_h.agent_hs_2 [apb_slave_agent] Executing Build-Phase in Slave Agent
# UVM_INFO ../slave_agent/apb_slave_agent.sv(41) @ 0: uvm_test_top.env_h.agent_hs_2 [apb_slave_agent] Build-Phase Complete in Slave Agent
# UVM_INFO ../slave_agent/apb_slave_drv.sv(30) @ 0: uvm_test_top.env_h.agent_hs_2.drv_hs [apb_slave_drv] Build-Phase Complete in Slave Driver
# UVM_INFO ../master_agent/apb_master_agent.sv(47) @ 0: uvm_test_top.env_h.agent_hm [apb_master_agent] Executing Connect-Phase in Master Agent
# UVM_INFO ../master_agent/apb_master_agent.sv(53) @ 0: uvm_test_top.env_h.agent_hm [apb_master_agent] Connect-Phase Complete in Master Agent
# UVM_INFO ../slave_agent/apb_slave_agent.sv(49) @ 0: uvm_test_top.env_h.agent_hs_0 [apb_slave_agent] Executing Connect-Phase in Slave Agent
# UVM_INFO ../slave_agent/apb_slave_agent.sv(55) @ 0: uvm_test_top.env_h.agent_hs_0 [apb_slave_agent] Connect-Phase Complete in Slave Agent
# UVM_INFO ../slave_agent/apb_slave_agent.sv(49) @ 0: uvm_test_top.env_h.agent_hs_1 [apb_slave_agent] Executing Connect-Phase in Slave Agent
# UVM_INFO ../slave_agent/apb_slave_agent.sv(55) @ 0: uvm_test_top.env_h.agent_hs_1 [apb_slave_agent] Connect-Phase Complete in Slave Agent
# UVM_INFO ../slave_agent/apb_slave_agent.sv(49) @ 0: uvm_test_top.env_h.agent_hs_2 [apb_slave_agent] Executing Connect-Phase in Slave Agent
# UVM_INFO ../slave_agent/apb_slave_agent.sv(55) @ 0: uvm_test_top.env_h.agent_hs_2 [apb_slave_agent] Connect-Phase Complete in Slave Agent
# UVM_INFO ../env/apb_env.sv(75) @ 0: uvm_test_top.env_h [apb_env] Connect-Phase complete in ENV
# UVM_INFO @ 0: reporter [UVMTOP] UVM testbench topology:
# ------------------------------------------------------------------
# Name                       Type                        Size  Value
# ------------------------------------------------------------------
# uvm_test_top               apb_base_test               -     @474 
#   env_h                    apb_env                     -     @492 
#     agent_hm               apb_master_agent            -     @523 
#       drv_hm               apb_master_drv              -     @581 
#         rsp_port           uvm_analysis_port           -     @596 
#         seq_item_port      uvm_seq_item_pull_port      -     @588 
#       mon_hm               apb_master_mon              -     @566 
#         mas_mon_ap         uvm_analysis_port           -     @573 
#       seqr_hm              apb_master_seqr             -     @604 
#         rsp_export         uvm_analysis_export         -     @611 
#         seq_item_export    uvm_seq_item_pull_imp       -     @705 
#         arbitration_queue  array                       0     -    
#         lock_queue         array                       0     -    
#         num_last_reqs      integral                    32    'd1  
#         num_last_rsps      integral                    32    'd1  
#     agent_hs_0             apb_slave_agent             -     @537 
#       drv_hs               apb_slave_drv               -     @752 
#         rsp_port           uvm_analysis_port           -     @767 
#         seq_item_port      uvm_seq_item_pull_port      -     @759 
#       mon_hs               apb_slave_mon               -     @737 
#         slv_mon_ap         uvm_analysis_port           -     @744 
#       seqr_hs              apb_slave_seqr              -     @775 
#         rsp_export         uvm_analysis_export         -     @782 
#         seq_item_export    uvm_seq_item_pull_imp       -     @876 
#         arbitration_queue  array                       0     -    
#         lock_queue         array                       0     -    
#         num_last_reqs      integral                    32    'd1  
#         num_last_rsps      integral                    32    'd1  
#     agent_hs_1             apb_slave_agent             -     @548 
#       drv_hs               apb_slave_drv               -     @910 
#         rsp_port           uvm_analysis_port           -     @925 
#         seq_item_port      uvm_seq_item_pull_port      -     @917 
#       mon_hs               apb_slave_mon               -     @895 
#         slv_mon_ap         uvm_analysis_port           -     @902 
#       seqr_hs              apb_slave_seqr              -     @933 
#         rsp_export         uvm_analysis_export         -     @940 
#         seq_item_export    uvm_seq_item_pull_imp       -     @1034
#         arbitration_queue  array                       0     -    
#         lock_queue         array                       0     -    
#         num_last_reqs      integral                    32    'd1  
#         num_last_rsps      integral                    32    'd1  
#     agent_hs_2             apb_slave_agent             -     @556 
#       drv_hs               apb_slave_drv               -     @1068
#         rsp_port           uvm_analysis_port           -     @1083
#         seq_item_port      uvm_seq_item_pull_port      -     @1075
#       mon_hs               apb_slave_mon               -     @1053
#         slv_mon_ap         uvm_analysis_port           -     @1060
#       seqr_hs              apb_slave_seqr              -     @1091
#         rsp_export         uvm_analysis_export         -     @1098
#         seq_item_export    uvm_seq_item_pull_imp       -     @1192
#         arbitration_queue  array                       0     -    
#         lock_queue         array                       0     -    
#         num_last_reqs      integral                    32    'd1  
#         num_last_rsps      integral                    32    'd1  
#     sb_h                   apb_sb                      -     @530 
#       mas_mon_fifo_h       uvm_tlm_analysis_fifo #(T)  -     @1209
#         analysis_export    uvm_analysis_imp            -     @1248
#         get_ap             uvm_analysis_port           -     @1240
#         get_peek_export    uvm_get_peek_imp            -     @1224
#         put_ap             uvm_analysis_port           -     @1232
#         put_export         uvm_put_imp                 -     @1216
#       slv_mon_fifo_h_0     uvm_tlm_analysis_fifo #(T)  -     @1273
#         analysis_export    uvm_analysis_imp            -     @1312
#         get_ap             uvm_analysis_port           -     @1304
#         get_peek_export    uvm_get_peek_imp            -     @1288
#         put_ap             uvm_analysis_port           -     @1296
#         put_export         uvm_put_imp                 -     @1280
#       slv_mon_fifo_h_1     uvm_tlm_analysis_fifo #(T)  -     @1320
#         analysis_export    uvm_analysis_imp            -     @1359
#         get_ap             uvm_analysis_port           -     @1351
#         get_peek_export    uvm_get_peek_imp            -     @1335
#         put_ap             uvm_analysis_port           -     @1343
#         put_export         uvm_put_imp                 -     @1327
#       slv_mon_fifo_h_2     uvm_tlm_analysis_fifo #(T)  -     @1367
#         analysis_export    uvm_analysis_imp            -     @1406
#         get_ap             uvm_analysis_port           -     @1398
#         get_peek_export    uvm_get_peek_imp            -     @1382
#         put_ap             uvm_analysis_port           -     @1390
#         put_export         uvm_put_imp                 -     @1374
# ------------------------------------------------------------------
# 
# UVM_INFO ../test/apb_base_test.sv(68) @ 0: uvm_test_top [apb_base_test] End-of-Elaboration complete in Test
# UVM_INFO ../slave_agent/apb_slave_config.sv(52) @ 0: reporter [apb_slave_config] Slave-0 | Range: 0x0–0x54 | is_active=UVM_ACTIVE | wait=0
# UVM_INFO ../slave_agent/apb_slave_config.sv(52) @ 0: reporter [apb_slave_config] Slave-1 | Range: 0x55–0xa9 | is_active=UVM_ACTIVE | wait=0
# UVM_INFO ../slave_agent/apb_slave_config.sv(52) @ 0: reporter [apb_slave_config] Slave-2 | Range: 0xaa–0xfe | is_active=UVM_ACTIVE | wait=0
# 
# ---------- Master Transaction : 1 ----------
# 
# UVM_INFO ../slave_agent/apb_slave_drv.sv(58) @ 50: uvm_test_top.env_h.agent_hs_0.drv_hs [apb_slave_drv] Transaction received at SLAVE-DRIVER =
# -----------------------------------------------------------------------------------------------------
# Name                           Type             Size  Value                                          
# -----------------------------------------------------------------------------------------------------
# trans_hs                       apb_slave_trans  -     @1438                                          
#   PADDR                        integral         8     'h0                                            
#   PWDATA                       integral         32    'h0                                            
#   PRDATA                       integral         32    'h0                                            
#   PSTRB                        integral         4     'h0                                            
#   PWRITE                       integral         1     'h0                                            
#   PENABLE                      integral         1     'h0                                            
#   PREADY                       integral         1     'h0                                            
#   PSLVERR                      integral         1     'h0                                            
#   PSEL                         da(integral)     0     -                                              
#   no_of_wait_cycles            integral         32    'd1                                            
#   wait_enable                  integral         1     1                                              
#   begin_time                   time             64    50                                             
#   depth                        int              32    'd2                                            
#   parent sequence (name)       string           9     seqs_hs_0                                      
#   parent sequence (full name)  string           47    uvm_test_top.env_h.agent_hs_0.seqr_hs.seqs_hs_0
#   sequencer                    string           37    uvm_test_top.env_h.agent_hs_0.seqr_hs          
# -----------------------------------------------------------------------------------------------------
# 
# UVM_INFO ../slave_agent/apb_slave_drv.sv(58) @ 50: uvm_test_top.env_h.agent_hs_1.drv_hs [apb_slave_drv] Transaction received at SLAVE-DRIVER =
# -----------------------------------------------------------------------------------------------------
# Name                           Type             Size  Value                                          
# -----------------------------------------------------------------------------------------------------
# trans_hs                       apb_slave_trans  -     @1434                                          
#   PADDR                        integral         8     'h0                                            
#   PWDATA                       integral         32    'h0                                            
#   PRDATA                       integral         32    'h0                                            
#   PSTRB                        integral         4     'h0                                            
#   PWRITE                       integral         1     'h0                                            
#   PENABLE                      integral         1     'h0                                            
#   PREADY                       integral         1     'h0                                            
#   PSLVERR                      integral         1     'h0                                            
#   PSEL                         da(integral)     0     -                                              
#   no_of_wait_cycles            integral         32    'd0                                            
#   wait_enable                  integral         1     'd0                                            
#   begin_time                   time             64    50                                             
#   depth                        int              32    'd2                                            
#   parent sequence (name)       string           9     seqs_hs_1                                      
#   parent sequence (full name)  string           47    uvm_test_top.env_h.agent_hs_1.seqr_hs.seqs_hs_1
#   sequencer                    string           37    uvm_test_top.env_h.agent_hs_1.seqr_hs          
# -----------------------------------------------------------------------------------------------------
# 
# UVM_INFO ../slave_agent/apb_slave_drv.sv(58) @ 50: uvm_test_top.env_h.agent_hs_2.drv_hs [apb_slave_drv] Transaction received at SLAVE-DRIVER =
# -----------------------------------------------------------------------------------------------------
# Name                           Type             Size  Value                                          
# -----------------------------------------------------------------------------------------------------
# trans_hs                       apb_slave_trans  -     @1430                                          
#   PADDR                        integral         8     'h0                                            
#   PWDATA                       integral         32    'h0                                            
#   PRDATA                       integral         32    'h0                                            
#   PSTRB                        integral         4     'h0                                            
#   PWRITE                       integral         1     'h0                                            
#   PENABLE                      integral         1     'h0                                            
#   PREADY                       integral         1     'h0                                            
#   PSLVERR                      integral         1     'h0                                            
#   PSEL                         da(integral)     0     -                                              
#   no_of_wait_cycles            integral         32    'd0                                            
#   wait_enable                  integral         1     'd0                                            
#   begin_time                   time             64    50                                             
#   depth                        int              32    'd2                                            
#   parent sequence (name)       string           9     seqs_hs_2                                      
#   parent sequence (full name)  string           47    uvm_test_top.env_h.agent_hs_2.seqr_hs.seqs_hs_2
#   sequencer                    string           37    uvm_test_top.env_h.agent_hs_2.seqr_hs          
# -----------------------------------------------------------------------------------------------------
# 
# UVM_INFO ../master_agent/apb_master_drv.sv(151) @ 50: uvm_test_top.env_h.agent_hm.drv_hm [apb_master_drv] [MASTER-TRANS-1] Data Received at MASTER-DRIVER =
# --------------------------------------------------------------------------------------------------
# Name                           Type              Size  Value                                      
# --------------------------------------------------------------------------------------------------
# trans_hm                       apb_master_trans  -     @1442                                      
#   PWRITE                       integral          1     'h1                                        
#   PADDR                        integral          8     'h0                                        
#   PWDATA                       integral          32    'heb203ca4                                 
#   PSTRB                        integral          4     'hf                                        
#   PENABLE                      integral          1     'h0                                        
#   PSEL                         da(integral)      0     -                                          
#   trans_size                   transfer_size_e   2     WORD                                       
#   PREADY                       integral          1     'h0                                        
#   PRDATA                       integral          32    'h0                                        
#   PSLVERR                      integral          1     'h0                                        
#   begin_time                   time              64    50                                         
#   depth                        int               32    'd2                                        
#   parent sequence (name)       string            7     seqs_hm                                    
#   parent sequence (full name)  string            43    uvm_test_top.env_h.agent_hm.seqr_hm.seqs_hm
#   sequencer                    string            35    uvm_test_top.env_h.agent_hm.seqr_hm        
#   Direction                    string            5     WRITE                                      
#   Trans Size                   string            4     WORD                                       
# --------------------------------------------------------------------------------------------------
# 
# UVM_INFO ../slave_agent/apb_slave_drv.sv(122) @ 110: uvm_test_top.env_h.agent_hs_0.drv_hs [apb_slave_drv] WRITE | ADDR=0x0 | DATA=0xeb203ca4 | STRB=0xf
# UVM_INFO ../slave_agent/apb_slave_mon.sv(95) @ 130: uvm_test_top.env_h.agent_hs_0.mon_hs [apb_slave_mon] Slave-0 WRITE sampled =
# ------------------------------------------------------
# Name                 Type             Size  Value     
# ------------------------------------------------------
# trans_hs             apb_slave_trans  -     @1542     
#   PADDR              integral         8     'h0       
#   PWDATA             integral         32    'heb203ca4
#   PRDATA             integral         32    'h0       
#   PSTRB              integral         4     'hf       
#   PWRITE             integral         1     'h1       
#   PENABLE            integral         1     'h1       
#   PREADY             integral         1     'h1       
#   PSLVERR            integral         1     'h0       
#   PSEL               da(integral)     0     -         
#   no_of_wait_cycles  integral         32    'd0       
#   wait_enable        integral         1     'd0       
# ------------------------------------------------------
# 
# UVM_INFO ../slave_agent/apb_slave_mon.sv(104) @ 130: uvm_test_top.env_h.agent_hs_0.mon_hs [apb_slave_mon] Slave-0 transaction sent to scoreboard = 
# ------------------------------------------------------
# Name                 Type             Size  Value     
# ------------------------------------------------------
# trans_hs             apb_slave_trans  -     @1542     
#   PADDR              integral         8     'h0       
#   PWDATA             integral         32    'heb203ca4
#   PRDATA             integral         32    'h0       
#   PSTRB              integral         4     'hf       
#   PWRITE             integral         1     'h1       
#   PENABLE            integral         1     'h1       
#   PREADY             integral         1     'h1       
#   PSLVERR            integral         1     'h0       
#   PSEL               da(integral)     0     -         
#   no_of_wait_cycles  integral         32    'd0       
#   wait_enable        integral         1     'd0       
# ------------------------------------------------------
# 
# UVM_INFO ../master_agent/apb_master_drv.sv(161) @ 130: uvm_test_top.env_h.agent_hm.drv_hm [apb_master_drv] [MASTER-TRANS-1] Transfer Complete — MASTER-DRIVER
# --------------------------------------------------------------------------------------------------
# Name                           Type              Size  Value                                      
# --------------------------------------------------------------------------------------------------
# trans_hm                       apb_master_trans  -     @1442                                      
#   PWRITE                       integral          1     'h1                                        
#   PADDR                        integral          8     'h0                                        
#   PWDATA                       integral          32    'heb203ca4                                 
#   PSTRB                        integral          4     'hf                                        
#   PENABLE                      integral          1     'h0                                        
#   PSEL                         da(integral)      3     -                                          
#     [0]                        integral          1     'h1                                        
#     [1]                        integral          1     'h0                                        
#     [2]                        integral          1     'h0                                        
#   trans_size                   transfer_size_e   2     WORD                                       
#   PREADY                       integral          1     'h0                                        
#   PRDATA                       integral          32    'h0                                        
#   PSLVERR                      integral          1     'h0                                        
#   begin_time                   time              64    50                                         
#   depth                        int               32    'd2                                        
#   parent sequence (name)       string            7     seqs_hm                                    
#   parent sequence (full name)  string            43    uvm_test_top.env_h.agent_hm.seqr_hm.seqs_hm
#   sequencer                    string            35    uvm_test_top.env_h.agent_hm.seqr_hm        
#   Direction                    string            5     WRITE                                      
#   Trans Size                   string            4     WORD                                       
# --------------------------------------------------------------------------------------------------
# 
# UVM_INFO ../slave_agent/apb_slave_drv.sv(67) @ 130: uvm_test_top.env_h.agent_hs_0.drv_hs [apb_slave_drv] Transaction complete at SLAVE-DRIVER =
# -----------------------------------------------------------------------------------------------------
# Name                           Type             Size  Value                                          
# -----------------------------------------------------------------------------------------------------
# trans_hs                       apb_slave_trans  -     @1438                                          
#   PADDR                        integral         8     'h0                                            
#   PWDATA                       integral         32    'h0                                            
#   PRDATA                       integral         32    'h0                                            
#   PSTRB                        integral         4     'h0                                            
#   PWRITE                       integral         1     'h0                                            
#   PENABLE                      integral         1     'h0                                            
#   PREADY                       integral         1     'h0                                            
#   PSLVERR                      integral         1     'h0                                            
#   PSEL                         da(integral)     0     -                                              
#   no_of_wait_cycles            integral         32    'd1                                            
#   wait_enable                  integral         1     1                                              
#   begin_time                   time             64    50                                             
#   depth                        int              32    'd2                                            
#   parent sequence (name)       string           9     seqs_hs_0                                      
#   parent sequence (full name)  string           47    uvm_test_top.env_h.agent_hs_0.seqr_hs.seqs_hs_0
#   sequencer                    string           37    uvm_test_top.env_h.agent_hs_0.seqr_hs          
# -----------------------------------------------------------------------------------------------------
# 
# UVM_INFO ../env/apb_sb.sv(123) @ 130: uvm_test_top.env_h.sb_h [apb_sb] Data received from slave 0 monitor = 
# ------------------------------------------------------
# Name                 Type             Size  Value     
# ------------------------------------------------------
# trans_hs             apb_slave_trans  -     @1542     
#   PADDR              integral         8     'h0       
#   PWDATA             integral         32    'heb203ca4
#   PRDATA             integral         32    'h0       
#   PSTRB              integral         4     'hf       
#   PWRITE             integral         1     'h1       
#   PENABLE            integral         1     'h1       
#   PREADY             integral         1     'h1       
#   PSLVERR            integral         1     'h0       
#   PSEL               da(integral)     0     -         
#   no_of_wait_cycles  integral         32    'd0       
#   wait_enable        integral         1     'd0       
# ------------------------------------------------------
# 
# UVM_INFO ../master_agent/apb_master_seqs.sv(30) @ 130: uvm_test_top.env_h.agent_hm.seqr_hm@@seqs_hm [apb_master_seqs] Transaction-1 sent from MASTER SEQS =
# --------------------------------------------------------------------------------------------------
# Name                           Type              Size  Value                                      
# --------------------------------------------------------------------------------------------------
# trans_hm                       apb_master_trans  -     @1442                                      
#   PWRITE                       integral          1     'h1                                        
#   PADDR                        integral          8     'h0                                        
#   PWDATA                       integral          32    'heb203ca4                                 
#   PSTRB                        integral          4     'hf                                        
#   PENABLE                      integral          1     'h0                                        
#   PSEL                         da(integral)      3     -                                          
#     [0]                        integral          1     'h1                                        
#     [1]                        integral          1     'h0                                        
#     [2]                        integral          1     'h0                                        
#   trans_size                   transfer_size_e   2     WORD                                       
#   PREADY                       integral          1     'h0                                        
#   PRDATA                       integral          32    'h0                                        
#   PSLVERR                      integral          1     'h0                                        
#   begin_time                   time              64    50                                         
#   end_time                     time              64    130                                        
#   depth                        int               32    'd2                                        
#   parent sequence (name)       string            7     seqs_hm                                    
#   parent sequence (full name)  string            43    uvm_test_top.env_h.agent_hm.seqr_hm.seqs_hm
#   sequencer                    string            35    uvm_test_top.env_h.agent_hm.seqr_hm        
#   Direction                    string            5     WRITE                                      
#   Trans Size                   string            4     WORD                                       
# --------------------------------------------------------------------------------------------------
# 
# 
# ---------- Master Transaction : 2 ----------
# 
# UVM_INFO ../slave_agent/apb_slave_drv.sv(58) @ 130: uvm_test_top.env_h.agent_hs_0.drv_hs [apb_slave_drv] Transaction received at SLAVE-DRIVER =
# -----------------------------------------------------------------------------------------------------
# Name                           Type             Size  Value                                          
# -----------------------------------------------------------------------------------------------------
# trans_hs                       apb_slave_trans  -     @1564                                          
#   PADDR                        integral         8     'h0                                            
#   PWDATA                       integral         32    'h0                                            
#   PRDATA                       integral         32    'h0                                            
#   PSTRB                        integral         4     'h0                                            
#   PWRITE                       integral         1     'h0                                            
#   PENABLE                      integral         1     'h0                                            
#   PREADY                       integral         1     'h0                                            
#   PSLVERR                      integral         1     'h0                                            
#   PSEL                         da(integral)     0     -                                              
#   no_of_wait_cycles            integral         32    'd0                                            
#   wait_enable                  integral         1     'd0                                            
#   begin_time                   time             64    130                                            
#   depth                        int              32    'd2                                            
#   parent sequence (name)       string           9     seqs_hs_0                                      
#   parent sequence (full name)  string           47    uvm_test_top.env_h.agent_hs_0.seqr_hs.seqs_hs_0
#   sequencer                    string           37    uvm_test_top.env_h.agent_hs_0.seqr_hs          
# -----------------------------------------------------------------------------------------------------
# 
# UVM_INFO ../master_agent/apb_master_drv.sv(151) @ 130: uvm_test_top.env_h.agent_hm.drv_hm [apb_master_drv] [MASTER-TRANS-2] Data Received at MASTER-DRIVER =
# --------------------------------------------------------------------------------------------------
# Name                           Type              Size  Value                                      
# --------------------------------------------------------------------------------------------------
# trans_hm                       apb_master_trans  -     @1559                                      
#   PWRITE                       integral          1     'h1                                        
#   PADDR                        integral          8     'h0                                        
#   PWDATA                       integral          32    'h96074a7d                                 
#   PSTRB                        integral          4     'hf                                        
#   PENABLE                      integral          1     'h0                                        
#   PSEL                         da(integral)      0     -                                          
#   trans_size                   transfer_size_e   2     WORD                                       
#   PREADY                       integral          1     'h0                                        
#   PRDATA                       integral          32    'h0                                        
#   PSLVERR                      integral          1     'h0                                        
#   begin_time                   time              64    130                                        
#   depth                        int               32    'd2                                        
#   parent sequence (name)       string            7     seqs_hm                                    
#   parent sequence (full name)  string            43    uvm_test_top.env_h.agent_hm.seqr_hm.seqs_hm
#   sequencer                    string            35    uvm_test_top.env_h.agent_hm.seqr_hm        
#   Direction                    string            5     WRITE                                      
#   Trans Size                   string            4     WORD                                       
# --------------------------------------------------------------------------------------------------
# 
# UVM_INFO ../slave_agent/apb_slave_drv.sv(122) @ 170: uvm_test_top.env_h.agent_hs_0.drv_hs [apb_slave_drv] WRITE | ADDR=0x0 | DATA=0x96074a7d | STRB=0xf
# UVM_INFO ../slave_agent/apb_slave_mon.sv(95) @ 190: uvm_test_top.env_h.agent_hs_0.mon_hs [apb_slave_mon] Slave-0 WRITE sampled =
# ------------------------------------------------------
# Name                 Type             Size  Value     
# ------------------------------------------------------
# trans_hs             apb_slave_trans  -     @1554     
#   PADDR              integral         8     'h0       
#   PWDATA             integral         32    'h96074a7d
#   PRDATA             integral         32    'h0       
#   PSTRB              integral         4     'hf       
#   PWRITE             integral         1     'h1       
#   PENABLE            integral         1     'h1       
#   PREADY             integral         1     'h1       
#   PSLVERR            integral         1     'h0       
#   PSEL               da(integral)     0     -         
#   no_of_wait_cycles  integral         32    'd0       
#   wait_enable        integral         1     'd0       
# ------------------------------------------------------
# 
# UVM_INFO ../slave_agent/apb_slave_mon.sv(104) @ 190: uvm_test_top.env_h.agent_hs_0.mon_hs [apb_slave_mon] Slave-0 transaction sent to scoreboard = 
# ------------------------------------------------------
# Name                 Type             Size  Value     
# ------------------------------------------------------
# trans_hs             apb_slave_trans  -     @1554     
#   PADDR              integral         8     'h0       
#   PWDATA             integral         32    'h96074a7d
#   PRDATA             integral         32    'h0       
#   PSTRB              integral         4     'hf       
#   PWRITE             integral         1     'h1       
#   PENABLE            integral         1     'h1       
#   PREADY             integral         1     'h1       
#   PSLVERR            integral         1     'h0       
#   PSEL               da(integral)     0     -         
#   no_of_wait_cycles  integral         32    'd0       
#   wait_enable        integral         1     'd0       
# ------------------------------------------------------
# 
# UVM_INFO ../master_agent/apb_master_drv.sv(161) @ 190: uvm_test_top.env_h.agent_hm.drv_hm [apb_master_drv] [MASTER-TRANS-2] Transfer Complete — MASTER-DRIVER
# --------------------------------------------------------------------------------------------------
# Name                           Type              Size  Value                                      
# --------------------------------------------------------------------------------------------------
# trans_hm                       apb_master_trans  -     @1559                                      
#   PWRITE                       integral          1     'h1                                        
#   PADDR                        integral          8     'h0                                        
#   PWDATA                       integral          32    'h96074a7d                                 
#   PSTRB                        integral          4     'hf                                        
#   PENABLE                      integral          1     'h0                                        
#   PSEL                         da(integral)      3     -                                          
#     [0]                        integral          1     'h1                                        
#     [1]                        integral          1     'h0                                        
#     [2]                        integral          1     'h0                                        
#   trans_size                   transfer_size_e   2     WORD                                       
#   PREADY                       integral          1     'h0                                        
#   PRDATA                       integral          32    'h0                                        
#   PSLVERR                      integral          1     'h0                                        
#   begin_time                   time              64    130                                        
#   depth                        int               32    'd2                                        
#   parent sequence (name)       string            7     seqs_hm                                    
#   parent sequence (full name)  string            43    uvm_test_top.env_h.agent_hm.seqr_hm.seqs_hm
#   sequencer                    string            35    uvm_test_top.env_h.agent_hm.seqr_hm        
#   Direction                    string            5     WRITE                                      
#   Trans Size                   string            4     WORD                                       
# --------------------------------------------------------------------------------------------------
# 
# UVM_INFO ../slave_agent/apb_slave_drv.sv(67) @ 190: uvm_test_top.env_h.agent_hs_0.drv_hs [apb_slave_drv] Transaction complete at SLAVE-DRIVER =
# -----------------------------------------------------------------------------------------------------
# Name                           Type             Size  Value                                          
# -----------------------------------------------------------------------------------------------------
# trans_hs                       apb_slave_trans  -     @1564                                          
#   PADDR                        integral         8     'h0                                            
#   PWDATA                       integral         32    'h0                                            
#   PRDATA                       integral         32    'h0                                            
#   PSTRB                        integral         4     'h0                                            
#   PWRITE                       integral         1     'h0                                            
#   PENABLE                      integral         1     'h0                                            
#   PREADY                       integral         1     'h0                                            
#   PSLVERR                      integral         1     'h0                                            
#   PSEL                         da(integral)     0     -                                              
#   no_of_wait_cycles            integral         32    'd0                                            
#   wait_enable                  integral         1     'd0                                            
#   begin_time                   time             64    130                                            
#   depth                        int              32    'd2                                            
#   parent sequence (name)       string           9     seqs_hs_0                                      
#   parent sequence (full name)  string           47    uvm_test_top.env_h.agent_hs_0.seqr_hs.seqs_hs_0
#   sequencer                    string           37    uvm_test_top.env_h.agent_hs_0.seqr_hs          
# -----------------------------------------------------------------------------------------------------
# 
# UVM_INFO ../env/apb_sb.sv(123) @ 190: uvm_test_top.env_h.sb_h [apb_sb] Data received from slave 0 monitor = 
# ------------------------------------------------------
# Name                 Type             Size  Value     
# ------------------------------------------------------
# trans_hs             apb_slave_trans  -     @1554     
#   PADDR              integral         8     'h0       
#   PWDATA             integral         32    'h96074a7d
#   PRDATA             integral         32    'h0       
#   PSTRB              integral         4     'hf       
#   PWRITE             integral         1     'h1       
#   PENABLE            integral         1     'h1       
#   PREADY             integral         1     'h1       
#   PSLVERR            integral         1     'h0       
#   PSEL               da(integral)     0     -         
#   no_of_wait_cycles  integral         32    'd0       
#   wait_enable        integral         1     'd0       
# ------------------------------------------------------
# 
# UVM_INFO ../master_agent/apb_master_seqs.sv(30) @ 190: uvm_test_top.env_h.agent_hm.seqr_hm@@seqs_hm [apb_master_seqs] Transaction-2 sent from MASTER SEQS =
# --------------------------------------------------------------------------------------------------
# Name                           Type              Size  Value                                      
# --------------------------------------------------------------------------------------------------
# trans_hm                       apb_master_trans  -     @1559                                      
#   PWRITE                       integral          1     'h1                                        
#   PADDR                        integral          8     'h0                                        
#   PWDATA                       integral          32    'h96074a7d                                 
#   PSTRB                        integral          4     'hf                                        
#   PENABLE                      integral          1     'h0                                        
#   PSEL                         da(integral)      3     -                                          
#     [0]                        integral          1     'h1                                        
#     [1]                        integral          1     'h0                                        
#     [2]                        integral          1     'h0                                        
#   trans_size                   transfer_size_e   2     WORD                                       
#   PREADY                       integral          1     'h0                                        
#   PRDATA                       integral          32    'h0                                        
#   PSLVERR                      integral          1     'h0                                        
#   begin_time                   time              64    130                                        
#   end_time                     time              64    190                                        
#   depth                        int               32    'd2                                        
#   parent sequence (name)       string            7     seqs_hm                                    
#   parent sequence (full name)  string            43    uvm_test_top.env_h.agent_hm.seqr_hm.seqs_hm
#   sequencer                    string            35    uvm_test_top.env_h.agent_hm.seqr_hm        
#   Direction                    string            5     WRITE                                      
#   Trans Size                   string            4     WORD                                       
# --------------------------------------------------------------------------------------------------
# 
# 
# ---------- Master Transaction : 3 ----------
# 
# UVM_INFO ../slave_agent/apb_slave_drv.sv(58) @ 190: uvm_test_top.env_h.agent_hs_0.drv_hs [apb_slave_drv] Transaction received at SLAVE-DRIVER =
# -----------------------------------------------------------------------------------------------------
# Name                           Type             Size  Value                                          
# -----------------------------------------------------------------------------------------------------
# trans_hs                       apb_slave_trans  -     @1576                                          
#   PADDR                        integral         8     'h0                                            
#   PWDATA                       integral         32    'h0                                            
#   PRDATA                       integral         32    'h0                                            
#   PSTRB                        integral         4     'h0                                            
#   PWRITE                       integral         1     'h0                                            
#   PENABLE                      integral         1     'h0                                            
#   PREADY                       integral         1     'h0                                            
#   PSLVERR                      integral         1     'h0                                            
#   PSEL                         da(integral)     0     -                                              
#   no_of_wait_cycles            integral         32    'd0                                            
#   wait_enable                  integral         1     'd0                                            
#   begin_time                   time             64    190                                            
#   depth                        int              32    'd2                                            
#   parent sequence (name)       string           9     seqs_hs_0                                      
#   parent sequence (full name)  string           47    uvm_test_top.env_h.agent_hs_0.seqr_hs.seqs_hs_0
#   sequencer                    string           37    uvm_test_top.env_h.agent_hs_0.seqr_hs          
# -----------------------------------------------------------------------------------------------------
# 
# UVM_INFO ../master_agent/apb_master_drv.sv(151) @ 190: uvm_test_top.env_h.agent_hm.drv_hm [apb_master_drv] [MASTER-TRANS-3] Data Received at MASTER-DRIVER =
# --------------------------------------------------------------------------------------------------
# Name                           Type              Size  Value                                      
# --------------------------------------------------------------------------------------------------
# trans_hm                       apb_master_trans  -     @1572                                      
#   PWRITE                       integral          1     'h1                                        
#   PADDR                        integral          8     'h0                                        
#   PWDATA                       integral          32    'h5cfbd0a8                                 
#   PSTRB                        integral          4     'h3                                        
#   PENABLE                      integral          1     'h0                                        
#   PSEL                         da(integral)      0     -                                          
#   trans_size                   transfer_size_e   2     HALFWORD                                   
#   PREADY                       integral          1     'h0                                        
#   PRDATA                       integral          32    'h0                                        
#   PSLVERR                      integral          1     'h0                                        
#   begin_time                   time              64    190                                        
#   depth                        int               32    'd2                                        
#   parent sequence (name)       string            7     seqs_hm                                    
#   parent sequence (full name)  string            43    uvm_test_top.env_h.agent_hm.seqr_hm.seqs_hm
#   sequencer                    string            35    uvm_test_top.env_h.agent_hm.seqr_hm        
#   Direction                    string            5     WRITE                                      
#   Trans Size                   string            8     HALFWORD                                   
# --------------------------------------------------------------------------------------------------
# 
# UVM_INFO ../slave_agent/apb_slave_drv.sv(122) @ 230: uvm_test_top.env_h.agent_hs_0.drv_hs [apb_slave_drv] WRITE | ADDR=0x0 | DATA=0x9607d0a8 | STRB=0x3
# UVM_INFO ../slave_agent/apb_slave_mon.sv(95) @ 250: uvm_test_top.env_h.agent_hs_0.mon_hs [apb_slave_mon] Slave-0 WRITE sampled =
# ------------------------------------------------------
# Name                 Type             Size  Value     
# ------------------------------------------------------
# trans_hs             apb_slave_trans  -     @1568     
#   PADDR              integral         8     'h0       
#   PWDATA             integral         32    'h5cfbd0a8
#   PRDATA             integral         32    'h0       
#   PSTRB              integral         4     'h3       
#   PWRITE             integral         1     'h1       
#   PENABLE            integral         1     'h1       
#   PREADY             integral         1     'h1       
#   PSLVERR            integral         1     'h0       
#   PSEL               da(integral)     0     -         
#   no_of_wait_cycles  integral         32    'd0       
#   wait_enable        integral         1     'd0       
# ------------------------------------------------------
# 
# UVM_INFO ../slave_agent/apb_slave_mon.sv(104) @ 250: uvm_test_top.env_h.agent_hs_0.mon_hs [apb_slave_mon] Slave-0 transaction sent to scoreboard = 
# ------------------------------------------------------
# Name                 Type             Size  Value     
# ------------------------------------------------------
# trans_hs             apb_slave_trans  -     @1568     
#   PADDR              integral         8     'h0       
#   PWDATA             integral         32    'h5cfbd0a8
#   PRDATA             integral         32    'h0       
#   PSTRB              integral         4     'h3       
#   PWRITE             integral         1     'h1       
#   PENABLE            integral         1     'h1       
#   PREADY             integral         1     'h1       
#   PSLVERR            integral         1     'h0       
#   PSEL               da(integral)     0     -         
#   no_of_wait_cycles  integral         32    'd0       
#   wait_enable        integral         1     'd0       
# ------------------------------------------------------
# 
# UVM_INFO ../master_agent/apb_master_drv.sv(161) @ 250: uvm_test_top.env_h.agent_hm.drv_hm [apb_master_drv] [MASTER-TRANS-3] Transfer Complete — MASTER-DRIVER
# --------------------------------------------------------------------------------------------------
# Name                           Type              Size  Value                                      
# --------------------------------------------------------------------------------------------------
# trans_hm                       apb_master_trans  -     @1572                                      
#   PWRITE                       integral          1     'h1                                        
#   PADDR                        integral          8     'h0                                        
#   PWDATA                       integral          32    'h5cfbd0a8                                 
#   PSTRB                        integral          4     'h3                                        
#   PENABLE                      integral          1     'h0                                        
#   PSEL                         da(integral)      3     -                                          
#     [0]                        integral          1     'h1                                        
#     [1]                        integral          1     'h0                                        
#     [2]                        integral          1     'h0                                        
#   trans_size                   transfer_size_e   2     HALFWORD                                   
#   PREADY                       integral          1     'h0                                        
#   PRDATA                       integral          32    'h0                                        
#   PSLVERR                      integral          1     'h0                                        
#   begin_time                   time              64    190                                        
#   depth                        int               32    'd2                                        
#   parent sequence (name)       string            7     seqs_hm                                    
#   parent sequence (full name)  string            43    uvm_test_top.env_h.agent_hm.seqr_hm.seqs_hm
#   sequencer                    string            35    uvm_test_top.env_h.agent_hm.seqr_hm        
#   Direction                    string            5     WRITE                                      
#   Trans Size                   string            8     HALFWORD                                   
# --------------------------------------------------------------------------------------------------
# 
# UVM_INFO ../slave_agent/apb_slave_drv.sv(67) @ 250: uvm_test_top.env_h.agent_hs_0.drv_hs [apb_slave_drv] Transaction complete at SLAVE-DRIVER =
# -----------------------------------------------------------------------------------------------------
# Name                           Type             Size  Value                                          
# -----------------------------------------------------------------------------------------------------
# trans_hs                       apb_slave_trans  -     @1576                                          
#   PADDR                        integral         8     'h0                                            
#   PWDATA                       integral         32    'h0                                            
#   PRDATA                       integral         32    'h0                                            
#   PSTRB                        integral         4     'h0                                            
#   PWRITE                       integral         1     'h0                                            
#   PENABLE                      integral         1     'h0                                            
#   PREADY                       integral         1     'h0                                            
#   PSLVERR                      integral         1     'h0                                            
#   PSEL                         da(integral)     0     -                                              
#   no_of_wait_cycles            integral         32    'd0                                            
#   wait_enable                  integral         1     'd0                                            
#   begin_time                   time             64    190                                            
#   depth                        int              32    'd2                                            
#   parent sequence (name)       string           9     seqs_hs_0                                      
#   parent sequence (full name)  string           47    uvm_test_top.env_h.agent_hs_0.seqr_hs.seqs_hs_0
#   sequencer                    string           37    uvm_test_top.env_h.agent_hs_0.seqr_hs          
# -----------------------------------------------------------------------------------------------------
# 
# UVM_INFO ../env/apb_sb.sv(123) @ 250: uvm_test_top.env_h.sb_h [apb_sb] Data received from slave 0 monitor = 
# ------------------------------------------------------
# Name                 Type             Size  Value     
# ------------------------------------------------------
# trans_hs             apb_slave_trans  -     @1568     
#   PADDR              integral         8     'h0       
#   PWDATA             integral         32    'h5cfbd0a8
#   PRDATA             integral         32    'h0       
#   PSTRB              integral         4     'h3       
#   PWRITE             integral         1     'h1       
#   PENABLE            integral         1     'h1       
#   PREADY             integral         1     'h1       
#   PSLVERR            integral         1     'h0       
#   PSEL               da(integral)     0     -         
#   no_of_wait_cycles  integral         32    'd0       
#   wait_enable        integral         1     'd0       
# ------------------------------------------------------
# 
# UVM_INFO ../master_agent/apb_master_seqs.sv(30) @ 250: uvm_test_top.env_h.agent_hm.seqr_hm@@seqs_hm [apb_master_seqs] Transaction-3 sent from MASTER SEQS =
# --------------------------------------------------------------------------------------------------
# Name                           Type              Size  Value                                      
# --------------------------------------------------------------------------------------------------
# trans_hm                       apb_master_trans  -     @1572                                      
#   PWRITE                       integral          1     'h1                                        
#   PADDR                        integral          8     'h0                                        
#   PWDATA                       integral          32    'h5cfbd0a8                                 
#   PSTRB                        integral          4     'h3                                        
#   PENABLE                      integral          1     'h0                                        
#   PSEL                         da(integral)      3     -                                          
#     [0]                        integral          1     'h1                                        
#     [1]                        integral          1     'h0                                        
#     [2]                        integral          1     'h0                                        
#   trans_size                   transfer_size_e   2     HALFWORD                                   
#   PREADY                       integral          1     'h0                                        
#   PRDATA                       integral          32    'h0                                        
#   PSLVERR                      integral          1     'h0                                        
#   begin_time                   time              64    190                                        
#   end_time                     time              64    250                                        
#   depth                        int               32    'd2                                        
#   parent sequence (name)       string            7     seqs_hm                                    
#   parent sequence (full name)  string            43    uvm_test_top.env_h.agent_hm.seqr_hm.seqs_hm
#   sequencer                    string            35    uvm_test_top.env_h.agent_hm.seqr_hm        
#   Direction                    string            5     WRITE                                      
#   Trans Size                   string            8     HALFWORD                                   
# --------------------------------------------------------------------------------------------------
# 
# 
# ---------- Master Transaction : 4 ----------
# 
# UVM_INFO ../slave_agent/apb_slave_drv.sv(58) @ 250: uvm_test_top.env_h.agent_hs_0.drv_hs [apb_slave_drv] Transaction received at SLAVE-DRIVER =
# -----------------------------------------------------------------------------------------------------
# Name                           Type             Size  Value                                          
# -----------------------------------------------------------------------------------------------------
# trans_hs                       apb_slave_trans  -     @1588                                          
#   PADDR                        integral         8     'h0                                            
#   PWDATA                       integral         32    'h0                                            
#   PRDATA                       integral         32    'h0                                            
#   PSTRB                        integral         4     'h0                                            
#   PWRITE                       integral         1     'h0                                            
#   PENABLE                      integral         1     'h0                                            
#   PREADY                       integral         1     'h0                                            
#   PSLVERR                      integral         1     'h0                                            
#   PSEL                         da(integral)     0     -                                              
#   no_of_wait_cycles            integral         32    'd1                                            
#   wait_enable                  integral         1     1                                              
#   begin_time                   time             64    250                                            
#   depth                        int              32    'd2                                            
#   parent sequence (name)       string           9     seqs_hs_0                                      
#   parent sequence (full name)  string           47    uvm_test_top.env_h.agent_hs_0.seqr_hs.seqs_hs_0
#   sequencer                    string           37    uvm_test_top.env_h.agent_hs_0.seqr_hs          
# -----------------------------------------------------------------------------------------------------
# 
# UVM_INFO ../master_agent/apb_master_drv.sv(151) @ 250: uvm_test_top.env_h.agent_hm.drv_hm [apb_master_drv] [MASTER-TRANS-4] Data Received at MASTER-DRIVER =
# --------------------------------------------------------------------------------------------------
# Name                           Type              Size  Value                                      
# --------------------------------------------------------------------------------------------------
# trans_hm                       apb_master_trans  -     @1584                                      
#   PWRITE                       integral          1     'h0                                        
#   PADDR                        integral          8     'h0                                        
#   PWDATA                       integral          32    'h0                                        
#   PSTRB                        integral          4     'h0                                        
#   PENABLE                      integral          1     'h0                                        
#   PSEL                         da(integral)      0     -                                          
#   trans_size                   transfer_size_e   2     WORD                                       
#   PREADY                       integral          1     'h0                                        
#   PRDATA                       integral          32    'h0                                        
#   PSLVERR                      integral          1     'h0                                        
#   begin_time                   time              64    250                                        
#   depth                        int               32    'd2                                        
#   parent sequence (name)       string            7     seqs_hm                                    
#   parent sequence (full name)  string            43    uvm_test_top.env_h.agent_hm.seqr_hm.seqs_hm
#   sequencer                    string            35    uvm_test_top.env_h.agent_hm.seqr_hm        
#   Direction                    string            4     READ                                       
#   Trans Size                   string            4     WORD                                       
# --------------------------------------------------------------------------------------------------
# 
# UVM_INFO ../slave_agent/apb_slave_drv.sv(140) @ 310: uvm_test_top.env_h.agent_hs_0.drv_hs [apb_slave_drv] READ  | ADDR=0x0 | DATA=0xd0a8
# UVM_INFO ../slave_agent/apb_slave_mon.sv(97) @ 330: uvm_test_top.env_h.agent_hs_0.mon_hs [apb_slave_mon] Slave-0 READ  sampled =
# -------------------------------------------------
# Name                 Type             Size  Value
# -------------------------------------------------
# trans_hs             apb_slave_trans  -     @1580
#   PADDR              integral         8     'h0  
#   PWDATA             integral         32    'h0  
#   PRDATA             integral         32    'h0  
#   PSTRB              integral         4     'h0  
#   PWRITE             integral         1     'h0  
#   PENABLE            integral         1     'h1  
#   PREADY             integral         1     'h1  
#   PSLVERR            integral         1     'h0  
#   PSEL               da(integral)     0     -    
#   no_of_wait_cycles  integral         32    'd0  
#   wait_enable        integral         1     'd0  
# -------------------------------------------------
# 
# UVM_INFO ../slave_agent/apb_slave_mon.sv(104) @ 330: uvm_test_top.env_h.agent_hs_0.mon_hs [apb_slave_mon] Slave-0 transaction sent to scoreboard = 
# -------------------------------------------------
# Name                 Type             Size  Value
# -------------------------------------------------
# trans_hs             apb_slave_trans  -     @1580
#   PADDR              integral         8     'h0  
#   PWDATA             integral         32    'h0  
#   PRDATA             integral         32    'h0  
#   PSTRB              integral         4     'h0  
#   PWRITE             integral         1     'h0  
#   PENABLE            integral         1     'h1  
#   PREADY             integral         1     'h1  
#   PSLVERR            integral         1     'h0  
#   PSEL               da(integral)     0     -    
#   no_of_wait_cycles  integral         32    'd0  
#   wait_enable        integral         1     'd0  
# -------------------------------------------------
# 
# UVM_INFO ../master_agent/apb_master_drv.sv(161) @ 330: uvm_test_top.env_h.agent_hm.drv_hm [apb_master_drv] [MASTER-TRANS-4] Transfer Complete — MASTER-DRIVER
# --------------------------------------------------------------------------------------------------
# Name                           Type              Size  Value                                      
# --------------------------------------------------------------------------------------------------
# trans_hm                       apb_master_trans  -     @1584                                      
#   PWRITE                       integral          1     'h0                                        
#   PADDR                        integral          8     'h0                                        
#   PWDATA                       integral          32    'h0                                        
#   PSTRB                        integral          4     'h0                                        
#   PENABLE                      integral          1     'h0                                        
#   PSEL                         da(integral)      3     -                                          
#     [0]                        integral          1     'h1                                        
#     [1]                        integral          1     'h0                                        
#     [2]                        integral          1     'h0                                        
#   trans_size                   transfer_size_e   2     WORD                                       
#   PREADY                       integral          1     'h0                                        
#   PRDATA                       integral          32    'h0                                        
#   PSLVERR                      integral          1     'h0                                        
#   begin_time                   time              64    250                                        
#   depth                        int               32    'd2                                        
#   parent sequence (name)       string            7     seqs_hm                                    
#   parent sequence (full name)  string            43    uvm_test_top.env_h.agent_hm.seqr_hm.seqs_hm
#   sequencer                    string            35    uvm_test_top.env_h.agent_hm.seqr_hm        
#   Direction                    string            4     READ                                       
#   Trans Size                   string            4     WORD                                       
# --------------------------------------------------------------------------------------------------
# 
# UVM_INFO ../slave_agent/apb_slave_drv.sv(67) @ 330: uvm_test_top.env_h.agent_hs_0.drv_hs [apb_slave_drv] Transaction complete at SLAVE-DRIVER =
# -----------------------------------------------------------------------------------------------------
# Name                           Type             Size  Value                                          
# -----------------------------------------------------------------------------------------------------
# trans_hs                       apb_slave_trans  -     @1588                                          
#   PADDR                        integral         8     'h0                                            
#   PWDATA                       integral         32    'h0                                            
#   PRDATA                       integral         32    'h0                                            
#   PSTRB                        integral         4     'h0                                            
#   PWRITE                       integral         1     'h0                                            
#   PENABLE                      integral         1     'h0                                            
#   PREADY                       integral         1     'h0                                            
#   PSLVERR                      integral         1     'h0                                            
#   PSEL                         da(integral)     0     -                                              
#   no_of_wait_cycles            integral         32    'd1                                            
#   wait_enable                  integral         1     1                                              
#   begin_time                   time             64    250                                            
#   depth                        int              32    'd2                                            
#   parent sequence (name)       string           9     seqs_hs_0                                      
#   parent sequence (full name)  string           47    uvm_test_top.env_h.agent_hs_0.seqr_hs.seqs_hs_0
#   sequencer                    string           37    uvm_test_top.env_h.agent_hs_0.seqr_hs          
# -----------------------------------------------------------------------------------------------------
# 
# UVM_INFO ../env/apb_sb.sv(105) @ 330: uvm_test_top.env_h.sb_h [apb_sb] Data received from master monitor = 
# --------------------------------------------
# Name          Type              Size  Value 
# --------------------------------------------
# trans_hm      apb_master_trans  -     @1426 
#   PWRITE      integral          1     'h0   
#   PADDR       integral          8     'h0   
#   PWDATA      integral          32    'h0   
#   PSTRB       integral          4     'h0   
#   PENABLE     integral          1     'h1   
#   PSEL        da(integral)      0     -     
#   trans_size  transfer_size_e   2     BYTE  
#   PREADY      integral          1     'h1   
#   PRDATA      integral          32    'hd0a8
#   PSLVERR     integral          1     'h0   
#   Direction   string            4     READ  
#   Trans Size  string            4     BYTE  
# --------------------------------------------
# 
# UVM_INFO ../env/apb_sb.sv(115) @ 330: uvm_test_top.env_h.sb_h [apb_sb] act_data_q = '{53416}
# UVM_INFO ../env/apb_sb.sv(123) @ 330: uvm_test_top.env_h.sb_h [apb_sb] Data received from slave 0 monitor = 
# -------------------------------------------------
# Name                 Type             Size  Value
# -------------------------------------------------
# trans_hs             apb_slave_trans  -     @1580
#   PADDR              integral         8     'h0  
#   PWDATA             integral         32    'h0  
#   PRDATA             integral         32    'h0  
#   PSTRB              integral         4     'h0  
#   PWRITE             integral         1     'h0  
#   PENABLE            integral         1     'h1  
#   PREADY             integral         1     'h1  
#   PSLVERR            integral         1     'h0  
#   PSEL               da(integral)     0     -    
#   no_of_wait_cycles  integral         32    'd0  
#   wait_enable        integral         1     'd0  
# -------------------------------------------------
# 
# UVM_INFO ../env/apb_sb.sv(145) @ 330: uvm_test_top.env_h.sb_h [apb_sb] exp_data_q = '{53416}
# UVM_INFO ../master_agent/apb_master_seqs.sv(30) @ 330: uvm_test_top.env_h.agent_hm.seqr_hm@@seqs_hm [apb_master_seqs] Transaction-4 sent from MASTER SEQS =
# --------------------------------------------------------------------------------------------------
# Name                           Type              Size  Value                                      
# --------------------------------------------------------------------------------------------------
# trans_hm                       apb_master_trans  -     @1584                                      
#   PWRITE                       integral          1     'h0                                        
#   PADDR                        integral          8     'h0                                        
#   PWDATA                       integral          32    'h0                                        
#   PSTRB                        integral          4     'h0                                        
#   PENABLE                      integral          1     'h0                                        
#   PSEL                         da(integral)      3     -                                          
#     [0]                        integral          1     'h1                                        
#     [1]                        integral          1     'h0                                        
#     [2]                        integral          1     'h0                                        
#   trans_size                   transfer_size_e   2     WORD                                       
#   PREADY                       integral          1     'h0                                        
#   PRDATA                       integral          32    'h0                                        
#   PSLVERR                      integral          1     'h0                                        
#   begin_time                   time              64    250                                        
#   end_time                     time              64    330                                        
#   depth                        int               32    'd2                                        
#   parent sequence (name)       string            7     seqs_hm                                    
#   parent sequence (full name)  string            43    uvm_test_top.env_h.agent_hm.seqr_hm.seqs_hm
#   sequencer                    string            35    uvm_test_top.env_h.agent_hm.seqr_hm        
#   Direction                    string            4     READ                                       
#   Trans Size                   string            4     WORD                                       
# --------------------------------------------------------------------------------------------------
# 
# 
# ---------- Master Transaction : 5 ----------
# 
# UVM_INFO ../env/apb_sb.sv(92) @ 330: uvm_test_top.env_h.sb_h [SUCCEED! DATA MATCHED] Exp Data => 0x0000d0a8 == Act Data => 0x0000d0a8
# UVM_INFO ../slave_agent/apb_slave_drv.sv(58) @ 330: uvm_test_top.env_h.agent_hs_0.drv_hs [apb_slave_drv] Transaction received at SLAVE-DRIVER =
# -----------------------------------------------------------------------------------------------------
# Name                           Type             Size  Value                                          
# -----------------------------------------------------------------------------------------------------
# trans_hs                       apb_slave_trans  -     @1600                                          
#   PADDR                        integral         8     'h0                                            
#   PWDATA                       integral         32    'h0                                            
#   PRDATA                       integral         32    'h0                                            
#   PSTRB                        integral         4     'h0                                            
#   PWRITE                       integral         1     'h0                                            
#   PENABLE                      integral         1     'h0                                            
#   PREADY                       integral         1     'h0                                            
#   PSLVERR                      integral         1     'h0                                            
#   PSEL                         da(integral)     0     -                                              
#   no_of_wait_cycles            integral         32    'd1                                            
#   wait_enable                  integral         1     1                                              
#   begin_time                   time             64    330                                            
#   depth                        int              32    'd2                                            
#   parent sequence (name)       string           9     seqs_hs_0                                      
#   parent sequence (full name)  string           47    uvm_test_top.env_h.agent_hs_0.seqr_hs.seqs_hs_0
#   sequencer                    string           37    uvm_test_top.env_h.agent_hs_0.seqr_hs          
# -----------------------------------------------------------------------------------------------------
# 
# UVM_INFO ../master_agent/apb_master_drv.sv(151) @ 330: uvm_test_top.env_h.agent_hm.drv_hm [apb_master_drv] [MASTER-TRANS-5] Data Received at MASTER-DRIVER =
# --------------------------------------------------------------------------------------------------
# Name                           Type              Size  Value                                      
# --------------------------------------------------------------------------------------------------
# trans_hm                       apb_master_trans  -     @1596                                      
#   PWRITE                       integral          1     'h1                                        
#   PADDR                        integral          8     'h0                                        
#   PWDATA                       integral          32    'h695a88ea                                 
#   PSTRB                        integral          4     'hf                                        
#   PENABLE                      integral          1     'h0                                        
#   PSEL                         da(integral)      0     -                                          
#   trans_size                   transfer_size_e   2     WORD                                       
#   PREADY                       integral          1     'h0                                        
#   PRDATA                       integral          32    'h0                                        
#   PSLVERR                      integral          1     'h0                                        
#   begin_time                   time              64    330                                        
#   depth                        int               32    'd2                                        
#   parent sequence (name)       string            7     seqs_hm                                    
#   parent sequence (full name)  string            43    uvm_test_top.env_h.agent_hm.seqr_hm.seqs_hm
#   sequencer                    string            35    uvm_test_top.env_h.agent_hm.seqr_hm        
#   Direction                    string            5     WRITE                                      
#   Trans Size                   string            4     WORD                                       
# --------------------------------------------------------------------------------------------------
# 
# UVM_INFO ../master_agent/apb_master_mon.sv(45) @ 350: uvm_test_top.env_h.agent_hm.mon_hm [apb_master_mon] Data Received at MASTER-MONITOR from SLAVE-DRIVER = 
# --------------------------------------------
# Name          Type              Size  Value 
# --------------------------------------------
# trans_hm      apb_master_trans  -     @1426 
#   PWRITE      integral          1     'h0   
#   PADDR       integral          8     'h0   
#   PWDATA      integral          32    'h0   
#   PSTRB       integral          4     'h0   
#   PENABLE     integral          1     'h1   
#   PSEL        da(integral)      0     -     
#   trans_size  transfer_size_e   2     BYTE  
#   PREADY      integral          1     'h1   
#   PRDATA      integral          32    'hd0a8
#   PSLVERR     integral          1     'h0   
#   Direction   string            4     READ  
#   Trans Size  string            4     BYTE  
# --------------------------------------------
# 
# UVM_INFO ../slave_agent/apb_slave_drv.sv(122) @ 390: uvm_test_top.env_h.agent_hs_0.drv_hs [apb_slave_drv] WRITE | ADDR=0x0 | DATA=0x695a88ea | STRB=0xf
# UVM_INFO ../slave_agent/apb_slave_mon.sv(95) @ 410: uvm_test_top.env_h.agent_hs_0.mon_hs [apb_slave_mon] Slave-0 WRITE sampled =
# ------------------------------------------------------
# Name                 Type             Size  Value     
# ------------------------------------------------------
# trans_hs             apb_slave_trans  -     @1592     
#   PADDR              integral         8     'h0       
#   PWDATA             integral         32    'h695a88ea
#   PRDATA             integral         32    'h0       
#   PSTRB              integral         4     'hf       
#   PWRITE             integral         1     'h1       
#   PENABLE            integral         1     'h1       
#   PREADY             integral         1     'h1       
#   PSLVERR            integral         1     'h0       
#   PSEL               da(integral)     0     -         
#   no_of_wait_cycles  integral         32    'd0       
#   wait_enable        integral         1     'd0       
# ------------------------------------------------------
# 
# UVM_INFO ../slave_agent/apb_slave_mon.sv(104) @ 410: uvm_test_top.env_h.agent_hs_0.mon_hs [apb_slave_mon] Slave-0 transaction sent to scoreboard = 
# ------------------------------------------------------
# Name                 Type             Size  Value     
# ------------------------------------------------------
# trans_hs             apb_slave_trans  -     @1592     
#   PADDR              integral         8     'h0       
#   PWDATA             integral         32    'h695a88ea
#   PRDATA             integral         32    'h0       
#   PSTRB              integral         4     'hf       
#   PWRITE             integral         1     'h1       
#   PENABLE            integral         1     'h1       
#   PREADY             integral         1     'h1       
#   PSLVERR            integral         1     'h0       
#   PSEL               da(integral)     0     -         
#   no_of_wait_cycles  integral         32    'd0       
#   wait_enable        integral         1     'd0       
# ------------------------------------------------------
# 
# UVM_INFO ../master_agent/apb_master_drv.sv(161) @ 410: uvm_test_top.env_h.agent_hm.drv_hm [apb_master_drv] [MASTER-TRANS-5] Transfer Complete — MASTER-DRIVER
# --------------------------------------------------------------------------------------------------
# Name                           Type              Size  Value                                      
# --------------------------------------------------------------------------------------------------
# trans_hm                       apb_master_trans  -     @1596                                      
#   PWRITE                       integral          1     'h1                                        
#   PADDR                        integral          8     'h0                                        
#   PWDATA                       integral          32    'h695a88ea                                 
#   PSTRB                        integral          4     'hf                                        
#   PENABLE                      integral          1     'h0                                        
#   PSEL                         da(integral)      3     -                                          
#     [0]                        integral          1     'h1                                        
#     [1]                        integral          1     'h0                                        
#     [2]                        integral          1     'h0                                        
#   trans_size                   transfer_size_e   2     WORD                                       
#   PREADY                       integral          1     'h0                                        
#   PRDATA                       integral          32    'h0                                        
#   PSLVERR                      integral          1     'h0                                        
#   begin_time                   time              64    330                                        
#   depth                        int               32    'd2                                        
#   parent sequence (name)       string            7     seqs_hm                                    
#   parent sequence (full name)  string            43    uvm_test_top.env_h.agent_hm.seqr_hm.seqs_hm
#   sequencer                    string            35    uvm_test_top.env_h.agent_hm.seqr_hm        
#   Direction                    string            5     WRITE                                      
#   Trans Size                   string            4     WORD                                       
# --------------------------------------------------------------------------------------------------
# 
# UVM_INFO ../slave_agent/apb_slave_drv.sv(67) @ 410: uvm_test_top.env_h.agent_hs_0.drv_hs [apb_slave_drv] Transaction complete at SLAVE-DRIVER =
# -----------------------------------------------------------------------------------------------------
# Name                           Type             Size  Value                                          
# -----------------------------------------------------------------------------------------------------
# trans_hs                       apb_slave_trans  -     @1600                                          
#   PADDR                        integral         8     'h0                                            
#   PWDATA                       integral         32    'h0                                            
#   PRDATA                       integral         32    'h0                                            
#   PSTRB                        integral         4     'h0                                            
#   PWRITE                       integral         1     'h0                                            
#   PENABLE                      integral         1     'h0                                            
#   PREADY                       integral         1     'h0                                            
#   PSLVERR                      integral         1     'h0                                            
#   PSEL                         da(integral)     0     -                                              
#   no_of_wait_cycles            integral         32    'd1                                            
#   wait_enable                  integral         1     1                                              
#   begin_time                   time             64    330                                            
#   depth                        int              32    'd2                                            
#   parent sequence (name)       string           9     seqs_hs_0                                      
#   parent sequence (full name)  string           47    uvm_test_top.env_h.agent_hs_0.seqr_hs.seqs_hs_0
#   sequencer                    string           37    uvm_test_top.env_h.agent_hs_0.seqr_hs          
# -----------------------------------------------------------------------------------------------------
# 
# UVM_INFO ../env/apb_sb.sv(123) @ 410: uvm_test_top.env_h.sb_h [apb_sb] Data received from slave 0 monitor = 
# ------------------------------------------------------
# Name                 Type             Size  Value     
# ------------------------------------------------------
# trans_hs             apb_slave_trans  -     @1592     
#   PADDR              integral         8     'h0       
#   PWDATA             integral         32    'h695a88ea
#   PRDATA             integral         32    'h0       
#   PSTRB              integral         4     'hf       
#   PWRITE             integral         1     'h1       
#   PENABLE            integral         1     'h1       
#   PREADY             integral         1     'h1       
#   PSLVERR            integral         1     'h0       
#   PSEL               da(integral)     0     -         
#   no_of_wait_cycles  integral         32    'd0       
#   wait_enable        integral         1     'd0       
# ------------------------------------------------------
# 
# UVM_INFO ../master_agent/apb_master_seqs.sv(30) @ 410: uvm_test_top.env_h.agent_hm.seqr_hm@@seqs_hm [apb_master_seqs] Transaction-5 sent from MASTER SEQS =
# --------------------------------------------------------------------------------------------------
# Name                           Type              Size  Value                                      
# --------------------------------------------------------------------------------------------------
# trans_hm                       apb_master_trans  -     @1596                                      
#   PWRITE                       integral          1     'h1                                        
#   PADDR                        integral          8     'h0                                        
#   PWDATA                       integral          32    'h695a88ea                                 
#   PSTRB                        integral          4     'hf                                        
#   PENABLE                      integral          1     'h0                                        
#   PSEL                         da(integral)      3     -                                          
#     [0]                        integral          1     'h1                                        
#     [1]                        integral          1     'h0                                        
#     [2]                        integral          1     'h0                                        
#   trans_size                   transfer_size_e   2     WORD                                       
#   PREADY                       integral          1     'h0                                        
#   PRDATA                       integral          32    'h0                                        
#   PSLVERR                      integral          1     'h0                                        
#   begin_time                   time              64    330                                        
#   end_time                     time              64    410                                        
#   depth                        int               32    'd2                                        
#   parent sequence (name)       string            7     seqs_hm                                    
#   parent sequence (full name)  string            43    uvm_test_top.env_h.agent_hm.seqr_hm.seqs_hm
#   sequencer                    string            35    uvm_test_top.env_h.agent_hm.seqr_hm        
#   Direction                    string            5     WRITE                                      
#   Trans Size                   string            4     WORD                                       
# --------------------------------------------------------------------------------------------------
# 
# UVM_INFO ../test/apb_base_test.sv(98) @ 410: uvm_test_top [apb_base_test] Master sequence complete — stopping simulation
# UVM_INFO ../test/apb_base_test.sv(105) @ 410: uvm_test_top [apb_base_test] Objection dropped — run phase complete
# UVM_INFO ../slave_agent/apb_slave_drv.sv(58) @ 410: uvm_test_top.env_h.agent_hs_0.drv_hs [apb_slave_drv] Transaction received at SLAVE-DRIVER =
# -----------------------------------------------------------------------------------------------------
# Name                           Type             Size  Value                                          
# -----------------------------------------------------------------------------------------------------
# trans_hs                       apb_slave_trans  -     @1608                                          
#   PADDR                        integral         8     'h0                                            
#   PWDATA                       integral         32    'h0                                            
#   PRDATA                       integral         32    'h0                                            
#   PSTRB                        integral         4     'h0                                            
#   PWRITE                       integral         1     'h0                                            
#   PENABLE                      integral         1     'h0                                            
#   PREADY                       integral         1     'h0                                            
#   PSLVERR                      integral         1     'h0                                            
#   PSEL                         da(integral)     0     -                                              
#   no_of_wait_cycles            integral         32    'd0                                            
#   wait_enable                  integral         1     'd0                                            
#   begin_time                   time             64    410                                            
#   depth                        int              32    'd2                                            
#   parent sequence (name)       string           9     seqs_hs_0                                      
#   parent sequence (full name)  string           47    uvm_test_top.env_h.agent_hs_0.seqr_hs.seqs_hs_0
#   sequencer                    string           37    uvm_test_top.env_h.agent_hs_0.seqr_hs          
