# vsim -coverage -vopt apb_top -sv_seed random -c -do "coverage save -onexit results/apb_multi_slave_pwdata_corner_rw_test/apb_multi_slave_pwdata_corner_rw_test_2.ucdb; run -all; exit" "+UVM_TESTNAME=apb_multi_slave_pwdata_corner_rw_test" 
# Start time: 15:07:06 on Jul 04,2026
# ** Note: (vsim-8009) Loading existing optimized design _opt1
# //  Questa Sim-64
# //  Version 10.7c win64 Aug 18 2018
# //
# //  Copyright 1991-2018 Mentor Graphics Corporation
# //  All Rights Reserved.
# //
# //  QuestaSim and its associated documentation contain trade
# //  secrets and commercial or financial information that are the property of
# //  Mentor Graphics Corporation and are privileged, confidential,
# //  and exempt from disclosure under the Freedom of Information Act,
# //  5 U.S.C. Section 552. Furthermore, this information
# //  is prohibited from disclosure under the Trade Secrets Act,
# //  18 U.S.C. Section 1905.
# //
# Loading sv_std.std
# Loading work.apb_inf(fast)
# Loading mtiUvm.uvm_pkg
# Loading work.apb_pkg(fast)
# Loading work.apb_top_sv_unit(fast)
# Loading work.apb_top(fast)
# Loading work.apb_pkg_sv_unit(fast)
# Loading work.apb_inf(fast)
# Loading mtiUvm.questa_uvm_pkg(fast)
# Loading C:/questasim64_10.7c/uvm-1.1d\win64\uvm_dpi.dll
# Sv_Seed = 347121018
# coverage save -onexit results/apb_multi_slave_pwdata_corner_rw_test/apb_multi_slave_pwdata_corner_rw_test_2.ucdb
#  run -all
# ----------------------------------------------------------------
# UVM-1.1d
# (C) 2007-2013 Mentor Graphics Corporation
# (C) 2007-2013 Cadence Design Systems, Inc.
# (C) 2006-2013 Synopsys, Inc.
# (C) 2011-2013 Cypress Semiconductor Corp.
# ----------------------------------------------------------------
# 
#   ***********       IMPORTANT RELEASE NOTES         ************
# 
#   You are using a version of the UVM library that has been compiled
#   with `UVM_NO_DEPRECATED undefined.
#   See http://www.eda.org/svdb/view.php?id=3313 for more details.
# 
#   You are using a version of the UVM library that has been compiled
#   with `UVM_OBJECT_MUST_HAVE_CONSTRUCTOR undefined.
#   See http://www.eda.org/svdb/view.php?id=3770 for more details.
# 
#       (Specify +UVM_NO_RELNOTES to turn off this notice)
# 
# UVM_INFO verilog_src/questa_uvm_pkg-1.2/src/questa_uvm_pkg.sv(215) @ 0: reporter [Questa UVM] QUESTA_UVM-1.2.3
# UVM_INFO verilog_src/questa_uvm_pkg-1.2/src/questa_uvm_pkg.sv(216) @ 0: reporter [Questa UVM]  questa_uvm::init(+struct)
# UVM_INFO @ 0: reporter [RNTST] Running test apb_multi_slave_pwdata_corner_rw_test...
# UVM_INFO ../TEST/apb_base_test.sv(60) @ 0: uvm_test_top [apb_multi_slave_pwdata_corner_rw_test] Build-Phase complete in Test
# UVM_INFO ../env/apb_env.sv(53) @ 0: uvm_test_top.env_h [apb_env] ENV built | slaves=4
# UVM_INFO ../master_agent/apb_master_agent.sv(23) @ 0: uvm_test_top.env_h.agent_hm [apb_master_agent] Executing Build-Phase in Master Agent
# UVM_INFO ../master_agent/apb_master_agent.sv(39) @ 0: uvm_test_top.env_h.agent_hm [apb_master_agent] Build-Phase Complete in Master Agent
# ------ Execution Done Build-Phase in Master Driver -------
# UVM_INFO ../slave_agent/apb_slave_agent.sv(23) @ 0: uvm_test_top.env_h.agent_hs_0 [apb_slave_agent] Executing Build-Phase in Slave Agent
# UVM_INFO ../slave_agent/apb_slave_agent.sv(39) @ 0: uvm_test_top.env_h.agent_hs_0 [apb_slave_agent] Build-Phase Complete in Slave Agent
# UVM_INFO ../slave_agent/apb_slave_drv.sv(30) @ 0: uvm_test_top.env_h.agent_hs_0.drv_hs [apb_slave_drv] Build-Phase Complete in Slave Driver
# UVM_INFO ../slave_agent/apb_slave_agent.sv(23) @ 0: uvm_test_top.env_h.agent_hs_1 [apb_slave_agent] Executing Build-Phase in Slave Agent
# UVM_INFO ../slave_agent/apb_slave_agent.sv(39) @ 0: uvm_test_top.env_h.agent_hs_1 [apb_slave_agent] Build-Phase Complete in Slave Agent
# UVM_INFO ../slave_agent/apb_slave_drv.sv(30) @ 0: uvm_test_top.env_h.agent_hs_1.drv_hs [apb_slave_drv] Build-Phase Complete in Slave Driver
# UVM_INFO ../slave_agent/apb_slave_agent.sv(23) @ 0: uvm_test_top.env_h.agent_hs_2 [apb_slave_agent] Executing Build-Phase in Slave Agent
# UVM_INFO ../slave_agent/apb_slave_agent.sv(39) @ 0: uvm_test_top.env_h.agent_hs_2 [apb_slave_agent] Build-Phase Complete in Slave Agent
# UVM_INFO ../slave_agent/apb_slave_drv.sv(30) @ 0: uvm_test_top.env_h.agent_hs_2.drv_hs [apb_slave_drv] Build-Phase Complete in Slave Driver
# UVM_INFO ../slave_agent/apb_slave_agent.sv(23) @ 0: uvm_test_top.env_h.agent_hs_3 [apb_slave_agent] Executing Build-Phase in Slave Agent
# UVM_INFO ../slave_agent/apb_slave_agent.sv(39) @ 0: uvm_test_top.env_h.agent_hs_3 [apb_slave_agent] Build-Phase Complete in Slave Agent
# UVM_INFO ../slave_agent/apb_slave_drv.sv(30) @ 0: uvm_test_top.env_h.agent_hs_3.drv_hs [apb_slave_drv] Build-Phase Complete in Slave Driver
# UVM_INFO ../master_agent/apb_master_agent.sv(47) @ 0: uvm_test_top.env_h.agent_hm [apb_master_agent] Executing Connect-Phase in Master Agent
# UVM_INFO ../master_agent/apb_master_agent.sv(53) @ 0: uvm_test_top.env_h.agent_hm [apb_master_agent] Connect-Phase Complete in Master Agent
# UVM_INFO ../slave_agent/apb_slave_agent.sv(47) @ 0: uvm_test_top.env_h.agent_hs_0 [apb_slave_agent] Executing Connect-Phase in Slave Agent
# UVM_INFO ../slave_agent/apb_slave_agent.sv(53) @ 0: uvm_test_top.env_h.agent_hs_0 [apb_slave_agent] Connect-Phase Complete in Slave Agent
# UVM_INFO ../slave_agent/apb_slave_agent.sv(47) @ 0: uvm_test_top.env_h.agent_hs_1 [apb_slave_agent] Executing Connect-Phase in Slave Agent
# UVM_INFO ../slave_agent/apb_slave_agent.sv(53) @ 0: uvm_test_top.env_h.agent_hs_1 [apb_slave_agent] Connect-Phase Complete in Slave Agent
# UVM_INFO ../slave_agent/apb_slave_agent.sv(47) @ 0: uvm_test_top.env_h.agent_hs_2 [apb_slave_agent] Executing Connect-Phase in Slave Agent
# UVM_INFO ../slave_agent/apb_slave_agent.sv(53) @ 0: uvm_test_top.env_h.agent_hs_2 [apb_slave_agent] Connect-Phase Complete in Slave Agent
# UVM_INFO ../slave_agent/apb_slave_agent.sv(47) @ 0: uvm_test_top.env_h.agent_hs_3 [apb_slave_agent] Executing Connect-Phase in Slave Agent
# UVM_INFO ../slave_agent/apb_slave_agent.sv(53) @ 0: uvm_test_top.env_h.agent_hs_3 [apb_slave_agent] Connect-Phase Complete in Slave Agent
# UVM_INFO ../env/apb_env.sv(71) @ 0: uvm_test_top.env_h [apb_env] Connect-Phase complete in ENV
# UVM_INFO @ 0: reporter [UVMTOP] UVM testbench topology:
# -----------------------------------------------------------------------------
# Name                       Type                                   Size  Value
# -----------------------------------------------------------------------------
# uvm_test_top               apb_multi_slave_pwdata_corner_rw_test  -     @475 
#   env_h                    apb_env                                -     @498 
#     agent_hm               apb_master_agent                       -     @537 
#       drv_hm               apb_master_drv                         -     @618 
#         rsp_port           uvm_analysis_port                      -     @633 
#         seq_item_port      uvm_seq_item_pull_port                 -     @625 
#       mon_hm               apb_master_mon                         -     @603 
#         mas_mon_ap         uvm_analysis_port                      -     @610 
#       seqr_hm              apb_master_seqr                        -     @641 
#         rsp_export         uvm_analysis_export                    -     @648 
#         seq_item_export    uvm_seq_item_pull_imp                  -     @742 
#         arbitration_queue  array                                  0     -    
#         lock_queue         array                                  0     -    
#         num_last_reqs      integral                               32    'd1  
#         num_last_rsps      integral                               32    'd1  
#     agent_hs_0             apb_slave_agent                        -     @566 
#       drv_hs               apb_slave_drv                          -     @781 
#         rsp_port           uvm_analysis_port                      -     @796 
#         seq_item_port      uvm_seq_item_pull_port                 -     @788 
#       mon_hs               apb_slave_mon                          -     @766 
#         slv_mon_ap         uvm_analysis_port                      -     @773 
#       seqr_hs              apb_slave_seqr                         -     @804 
#         rsp_export         uvm_analysis_export                    -     @811 
#         seq_item_export    uvm_seq_item_pull_imp                  -     @905 
#         arbitration_queue  array                                  0     -    
#         lock_queue         array                                  0     -    
#         num_last_reqs      integral                               32    'd1  
#         num_last_rsps      integral                               32    'd1  
#     agent_hs_1             apb_slave_agent                        -     @577 
#       drv_hs               apb_slave_drv                          -     @939 
#         rsp_port           uvm_analysis_port                      -     @954 
#         seq_item_port      uvm_seq_item_pull_port                 -     @946 
#       mon_hs               apb_slave_mon                          -     @924 
#         slv_mon_ap         uvm_analysis_port                      -     @931 
#       seqr_hs              apb_slave_seqr                         -     @962 
#         rsp_export         uvm_analysis_export                    -     @969 
#         seq_item_export    uvm_seq_item_pull_imp                  -     @1063
#         arbitration_queue  array                                  0     -    
#         lock_queue         array                                  0     -    
#         num_last_reqs      integral                               32    'd1  
#         num_last_rsps      integral                               32    'd1  
#     agent_hs_2             apb_slave_agent                        -     @585 
#       drv_hs               apb_slave_drv                          -     @1097
#         rsp_port           uvm_analysis_port                      -     @1112
#         seq_item_port      uvm_seq_item_pull_port                 -     @1104
#       mon_hs               apb_slave_mon                          -     @1082
#         slv_mon_ap         uvm_analysis_port                      -     @1089
#       seqr_hs              apb_slave_seqr                         -     @1120
#         rsp_export         uvm_analysis_export                    -     @1127
#         seq_item_export    uvm_seq_item_pull_imp                  -     @1221
#         arbitration_queue  array                                  0     -    
#         lock_queue         array                                  0     -    
#         num_last_reqs      integral                               32    'd1  
#         num_last_rsps      integral                               32    'd1  
#     agent_hs_3             apb_slave_agent                        -     @593 
#       drv_hs               apb_slave_drv                          -     @1255
#         rsp_port           uvm_analysis_port                      -     @1270
#         seq_item_port      uvm_seq_item_pull_port                 -     @1262
#       mon_hs               apb_slave_mon                          -     @1240
#         slv_mon_ap         uvm_analysis_port                      -     @1247
#       seqr_hs              apb_slave_seqr                         -     @1278
#         rsp_export         uvm_analysis_export                    -     @1285
#         seq_item_export    uvm_seq_item_pull_imp                  -     @1379
#         arbitration_queue  array                                  0     -    
#         lock_queue         array                                  0     -    
#         num_last_reqs      integral                               32    'd1  
#         num_last_rsps      integral                               32    'd1  
#     cov_h                  apb_coverage                           -     @544 
#       analysis_imp         uvm_analysis_imp                       -     @551 
#       slv_mon2_cov_af_0    uvm_tlm_analysis_fifo #(T)             -     @1396
#         analysis_export    uvm_analysis_imp                       -     @1435
#         get_ap             uvm_analysis_port                      -     @1427
#         get_peek_export    uvm_get_peek_imp                       -     @1411
#         put_ap             uvm_analysis_port                      -     @1419
#         put_export         uvm_put_imp                            -     @1403
#       slv_mon2_cov_af_1    uvm_tlm_analysis_fifo #(T)             -     @1443
#         analysis_export    uvm_analysis_imp                       -     @1482
#         get_ap             uvm_analysis_port                      -     @1474
#         get_peek_export    uvm_get_peek_imp                       -     @1458
#         put_ap             uvm_analysis_port                      -     @1466
#         put_export         uvm_put_imp                            -     @1450
#       slv_mon2_cov_af_2    uvm_tlm_analysis_fifo #(T)             -     @1490
#         analysis_export    uvm_analysis_imp                       -     @1529
#         get_ap             uvm_analysis_port                      -     @1521
#         get_peek_export    uvm_get_peek_imp                       -     @1505
#         put_ap             uvm_analysis_port                      -     @1513
#         put_export         uvm_put_imp                            -     @1497
#       slv_mon2_cov_af_3    uvm_tlm_analysis_fifo #(T)             -     @1537
#         analysis_export    uvm_analysis_imp                       -     @1576
#         get_ap             uvm_analysis_port                      -     @1568
#         get_peek_export    uvm_get_peek_imp                       -     @1552
#         put_ap             uvm_analysis_port                      -     @1560
#         put_export         uvm_put_imp                            -     @1544
#     sb_h                   apb_sb                                 -     @559 
#       mas_mon_fifo_h       uvm_tlm_analysis_fifo #(T)             -     @1584
#         analysis_export    uvm_analysis_imp                       -     @1623
#         get_ap             uvm_analysis_port                      -     @1615
#         get_peek_export    uvm_get_peek_imp                       -     @1599
#         put_ap             uvm_analysis_port                      -     @1607
#         put_export         uvm_put_imp                            -     @1591
#       slv_mon_fifo_h_0     uvm_tlm_analysis_fifo #(T)             -     @1652
#         analysis_export    uvm_analysis_imp                       -     @1691
#         get_ap             uvm_analysis_port                      -     @1683
#         get_peek_export    uvm_get_peek_imp                       -     @1667
#         put_ap             uvm_analysis_port                      -     @1675
#         put_export         uvm_put_imp                            -     @1659
#       slv_mon_fifo_h_1     uvm_tlm_analysis_fifo #(T)             -     @1699
#         analysis_export    uvm_analysis_imp                       -     @1738
#         get_ap             uvm_analysis_port                      -     @1730
#         get_peek_export    uvm_get_peek_imp                       -     @1714
#         put_ap             uvm_analysis_port                      -     @1722
#         put_export         uvm_put_imp                            -     @1706
#       slv_mon_fifo_h_2     uvm_tlm_analysis_fifo #(T)             -     @1746
#         analysis_export    uvm_analysis_imp                       -     @1785
#         get_ap             uvm_analysis_port                      -     @1777
#         get_peek_export    uvm_get_peek_imp                       -     @1761
#         put_ap             uvm_analysis_port                      -     @1769
#         put_export         uvm_put_imp                            -     @1753
#       slv_mon_fifo_h_3     uvm_tlm_analysis_fifo #(T)             -     @1793
#         analysis_export    uvm_analysis_imp                       -     @1832
#         get_ap             uvm_analysis_port                      -     @1824
#         get_peek_export    uvm_get_peek_imp                       -     @1808
#         put_ap             uvm_analysis_port                      -     @1816
#         put_export         uvm_put_imp                            -     @1800
# -----------------------------------------------------------------------------
# 
# UVM_INFO ../TEST/apb_base_test.sv(69) @ 0: uvm_test_top [apb_multi_slave_pwdata_corner_rw_test] End-of-Elaboration complete in Test
# UVM_INFO ../slave_agent/apb_slave_config.sv(52) @ 0: reporter [apb_slave_config] Slave-0 | Range: 0x0–0x3f | is_active=UVM_ACTIVE | wait=0
# UVM_INFO ../slave_agent/apb_slave_config.sv(52) @ 0: reporter [apb_slave_config] Slave-1 | Range: 0x40–0x7f | is_active=UVM_ACTIVE | wait=0
# UVM_INFO ../slave_agent/apb_slave_config.sv(52) @ 0: reporter [apb_slave_config] Slave-2 | Range: 0x80–0xbf | is_active=UVM_ACTIVE | wait=0
# UVM_INFO ../slave_agent/apb_slave_config.sv(52) @ 0: reporter [apb_slave_config] Slave-3 | Range: 0xc0–0xff | is_active=UVM_ACTIVE | wait=0
# 
# ---------- apb_multi_slave_pwdata_corner_rw_seqs transaction : 1 ----------
# 
# UVM_INFO ../slave_agent/apb_slave_drv.sv(58) @ 50: uvm_test_top.env_h.agent_hs_0.drv_hs [apb_slave_drv] Transaction received at SLAVE-DRIVER =
# -----------------------------------------------------------------------------------------------------
# Name                           Type             Size  Value                                          
# -----------------------------------------------------------------------------------------------------
# trans_hs                       apb_slave_trans  -     @1871                                          
#   PADDR                        integral         8     'h0xx                                          
#   PWDATA                       integral         32    'h0xxxxxxxx                                    
#   PRDATA                       integral         32    'h0xxxxxxxx                                    
#   PSTRB                        integral         4     'h0x                                           
#   PWRITE                       integral         1     'h0X                                           
#   PENABLE                      integral         1     'h0X                                           
#   PREADY                       integral         1     'h0X                                           
#   PSLVERR                      integral         1     'h0X                                           
#   PSEL                         da(integral)     0     -                                              
#   no_of_wait_cycles            integral         32    'd1                                            
#   wait_enable                  integral         1     1                                              
#   begin_time                   time             64    50                                             
#   depth                        int              32    'd2                                            
#   parent sequence (name)       string           9     seqs_hs_0                                      
#   parent sequence (full name)  string           47    uvm_test_top.env_h.agent_hs_0.seqr_hs.seqs_hs_0
#   sequencer                    string           37    uvm_test_top.env_h.agent_hs_0.seqr_hs          
# -----------------------------------------------------------------------------------------------------
# 
# UVM_INFO ../slave_agent/apb_slave_drv.sv(58) @ 50: uvm_test_top.env_h.agent_hs_1.drv_hs [apb_slave_drv] Transaction received at SLAVE-DRIVER =
# -----------------------------------------------------------------------------------------------------
# Name                           Type             Size  Value                                          
# -----------------------------------------------------------------------------------------------------
# trans_hs                       apb_slave_trans  -     @1867                                          
#   PADDR                        integral         8     'h0xx                                          
#   PWDATA                       integral         32    'h0xxxxxxxx                                    
#   PRDATA                       integral         32    'h0xxxxxxxx                                    
#   PSTRB                        integral         4     'h0x                                           
#   PWRITE                       integral         1     'h0X                                           
#   PENABLE                      integral         1     'h0X                                           
#   PREADY                       integral         1     'h0X                                           
#   PSLVERR                      integral         1     'h0X                                           
#   PSEL                         da(integral)     0     -                                              
#   no_of_wait_cycles            integral         32    'd0                                            
#   wait_enable                  integral         1     'd0                                            
#   begin_time                   time             64    50                                             
#   depth                        int              32    'd2                                            
#   parent sequence (name)       string           9     seqs_hs_1                                      
#   parent sequence (full name)  string           47    uvm_test_top.env_h.agent_hs_1.seqr_hs.seqs_hs_1
#   sequencer                    string           37    uvm_test_top.env_h.agent_hs_1.seqr_hs          
# -----------------------------------------------------------------------------------------------------
# 
# UVM_INFO ../slave_agent/apb_slave_drv.sv(58) @ 50: uvm_test_top.env_h.agent_hs_2.drv_hs [apb_slave_drv] Transaction received at SLAVE-DRIVER =
# -----------------------------------------------------------------------------------------------------
# Name                           Type             Size  Value                                          
# -----------------------------------------------------------------------------------------------------
# trans_hs                       apb_slave_trans  -     @1863                                          
#   PADDR                        integral         8     'h0xx                                          
#   PWDATA                       integral         32    'h0xxxxxxxx                                    
#   PRDATA                       integral         32    'h0xxxxxxxx                                    
#   PSTRB                        integral         4     'h0x                                           
#   PWRITE                       integral         1     'h0X                                           
#   PENABLE                      integral         1     'h0X                                           
#   PREADY                       integral         1     'h0X                                           
#   PSLVERR                      integral         1     'h0X                                           
#   PSEL                         da(integral)     0     -                                              
#   no_of_wait_cycles            integral         32    'd0                                            
#   wait_enable                  integral         1     'd0                                            
#   begin_time                   time             64    50                                             
#   depth                        int              32    'd2                                            
#   parent sequence (name)       string           9     seqs_hs_2                                      
#   parent sequence (full name)  string           47    uvm_test_top.env_h.agent_hs_2.seqr_hs.seqs_hs_2
#   sequencer                    string           37    uvm_test_top.env_h.agent_hs_2.seqr_hs          
# -----------------------------------------------------------------------------------------------------
# 
# UVM_INFO ../slave_agent/apb_slave_drv.sv(58) @ 50: uvm_test_top.env_h.agent_hs_3.drv_hs [apb_slave_drv] Transaction received at SLAVE-DRIVER =
# -----------------------------------------------------------------------------------------------------
# Name                           Type             Size  Value                                          
# -----------------------------------------------------------------------------------------------------
# trans_hs                       apb_slave_trans  -     @1859                                          
#   PADDR                        integral         8     'h0xx                                          
#   PWDATA                       integral         32    'h0xxxxxxxx                                    
#   PRDATA                       integral         32    'h0xxxxxxxx                                    
#   PSTRB                        integral         4     'h0x                                           
#   PWRITE                       integral         1     'h0X                                           
#   PENABLE                      integral         1     'h0X                                           
#   PREADY                       integral         1     'h0X                                           
#   PSLVERR                      integral         1     'h0X                                           
#   PSEL                         da(integral)     0     -                                              
#   no_of_wait_cycles            integral         32    'd0                                            
#   wait_enable                  integral         1     'd0                                            
#   begin_time                   time             64    50                                             
#   depth                        int              32    'd2                                            
#   parent sequence (name)       string           9     seqs_hs_3                                      
#   parent sequence (full name)  string           47    uvm_test_top.env_h.agent_hs_3.seqr_hs.seqs_hs_3
#   sequencer                    string           37    uvm_test_top.env_h.agent_hs_3.seqr_hs          
# -----------------------------------------------------------------------------------------------------
# 
# UVM_INFO ../master_agent/apb_master_drv.sv(148) @ 50: uvm_test_top.env_h.agent_hm.drv_hm [apb_master_drv] [MASTER-TRANS-1] Data Received at MASTER-DRIVER =
# --------------------------------------------------------------------------------------------------------
# Name                           Type              Size  Value                                            
# --------------------------------------------------------------------------------------------------------
# trans_hm                       apb_master_trans  -     @1875                                            
#   PWRITE                       integral          1     'h1                                              
#   PADDR                        integral          8     'he3                                             
#   PWDATA                       integral          32    'hffffffff                                       
#   PSTRB                        integral          4     'h3                                              
#   PENABLE                      integral          1     'h1                                              
#   PSEL                         da(integral)      0     -                                                
#   trans_size                   transfer_size_e   2     HALFWORD                                         
#   PREADY                       integral          1     'h0X                                             
#   PRDATA                       integral          32    'h0xxxxxxxx                                      
#   PSLVERR                      integral          1     'h0X                                             
#   begin_time                   time              64    50                                               
#   depth                        int               32    'd2                                              
#   parent sequence (name)       string            13    multi_slv_seq                                    
#   parent sequence (full name)  string            49    uvm_test_top.env_h.agent_hm.seqr_hm.multi_slv_seq
#   sequencer                    string            35    uvm_test_top.env_h.agent_hm.seqr_hm              
#   Direction                    string            5     WRITE                                            
#   Trans Size                   string            8     HALFWORD                                         
# --------------------------------------------------------------------------------------------------------
# 
# UVM_INFO ../slave_agent/apb_slave_drv.sv(119) @ 90: uvm_test_top.env_h.agent_hs_3.drv_hs [apb_slave_drv] WRITE | ADDR=0xe3 | DATA=0xffff | STRB=0x3
# UVM_INFO ../slave_agent/apb_slave_mon.sv(102) @ 110: uvm_test_top.env_h.agent_hs_3.mon_hs [apb_slave_mon] Slave-3 WRITE sampled =
# -------------------------------------------------------
# Name                 Type             Size  Value      
# -------------------------------------------------------
# trans_hs             apb_slave_trans  -     @2011      
#   PADDR              integral         8     'he3       
#   PWDATA             integral         32    'hffffffff 
#   PRDATA             integral         32    'h0xxxxxxxx
#   PSTRB              integral         4     'h3        
#   PWRITE             integral         1     'h1        
#   PENABLE            integral         1     'h1        
#   PREADY             integral         1     'h1        
#   PSLVERR            integral         1     'h0X       
#   PSEL               da(integral)     0     -          
#   no_of_wait_cycles  integral         32    'd0        
#   wait_enable        integral         1     'dX        
# -------------------------------------------------------
# 
# UVM_INFO ../slave_agent/apb_slave_mon.sv(111) @ 110: uvm_test_top.env_h.agent_hs_3.mon_hs [apb_slave_mon] Slave-3 transaction sent to scoreboard = 
# -------------------------------------------------------
# Name                 Type             Size  Value      
# -------------------------------------------------------
# trans_hs             apb_slave_trans  -     @2011      
#   PADDR              integral         8     'he3       
#   PWDATA             integral         32    'hffffffff 
#   PRDATA             integral         32    'h0xxxxxxxx
#   PSTRB              integral         4     'h3        
#   PWRITE             integral         1     'h1        
#   PENABLE            integral         1     'h1        
#   PREADY             integral         1     'h1        
#   PSLVERR            integral         1     'h0X       
#   PSEL               da(integral)     0     -          
#   no_of_wait_cycles  integral         32    'd0        
#   wait_enable        integral         1     'dX        
# -------------------------------------------------------
# 
# UVM_INFO ../master_agent/apb_master_drv.sv(158) @ 110: uvm_test_top.env_h.agent_hm.drv_hm [apb_master_drv] [MASTER-TRANS-1] Transfer Complete — MASTER-DRIVER
# --------------------------------------------------------------------------------------------------------
# Name                           Type              Size  Value                                            
# --------------------------------------------------------------------------------------------------------
# trans_hm                       apb_master_trans  -     @1875                                            
#   PWRITE                       integral          1     'h1                                              
#   PADDR                        integral          8     'he3                                             
#   PWDATA                       integral          32    'hffffffff                                       
#   PSTRB                        integral          4     'h3                                              
#   PENABLE                      integral          1     'h1                                              
#   PSEL                         da(integral)      4     -                                                
#     [0]                        integral          1     'h0                                              
#     [1]                        integral          1     'h0                                              
#     [2]                        integral          1     'h0                                              
#     [3]                        integral          1     'h1                                              
#   trans_size                   transfer_size_e   2     HALFWORD                                         
#   PREADY                       integral          1     'h0X                                             
#   PRDATA                       integral          32    'h0xxxxxxxx                                      
#   PSLVERR                      integral          1     'h0X                                             
#   begin_time                   time              64    50                                               
#   depth                        int               32    'd2                                              
#   parent sequence (name)       string            13    multi_slv_seq                                    
#   parent sequence (full name)  string            49    uvm_test_top.env_h.agent_hm.seqr_hm.multi_slv_seq
#   sequencer                    string            35    uvm_test_top.env_h.agent_hm.seqr_hm              
#   Direction                    string            5     WRITE                                            
#   Trans Size                   string            8     HALFWORD                                         
# --------------------------------------------------------------------------------------------------------
# 
# UVM_INFO ../slave_agent/apb_slave_drv.sv(67) @ 110: uvm_test_top.env_h.agent_hs_3.drv_hs [apb_slave_drv] Transaction complete at SLAVE-DRIVER =
# -----------------------------------------------------------------------------------------------------
# Name                           Type             Size  Value                                          
# -----------------------------------------------------------------------------------------------------
# trans_hs                       apb_slave_trans  -     @1859                                          
#   PADDR                        integral         8     'h0xx                                          
#   PWDATA                       integral         32    'h0xxxxxxxx                                    
#   PRDATA                       integral         32    'h0xxxxxxxx                                    
#   PSTRB                        integral         4     'h0x                                           
#   PWRITE                       integral         1     'h0X                                           
#   PENABLE                      integral         1     'h0X                                           
#   PREADY                       integral         1     'h0X                                           
#   PSLVERR                      integral         1     'h0X                                           
#   PSEL                         da(integral)     0     -                                              
#   no_of_wait_cycles            integral         32    'd0                                            
#   wait_enable                  integral         1     'd0                                            
#   begin_time                   time             64    50                                             
#   depth                        int              32    'd2                                            
#   parent sequence (name)       string           9     seqs_hs_3                                      
#   parent sequence (full name)  string           47    uvm_test_top.env_h.agent_hs_3.seqr_hs.seqs_hs_3
#   sequencer                    string           37    uvm_test_top.env_h.agent_hs_3.seqr_hs          
# -----------------------------------------------------------------------------------------------------
# 
# UVM_INFO ../env/apb_sb.sv(127) @ 110: uvm_test_top.env_h.sb_h [apb_sb] Data received from slave 3 monitor = 
# -------------------------------------------------------
# Name                 Type             Size  Value      
# -------------------------------------------------------
# trans_hs             apb_slave_trans  -     @2011      
#   PADDR              integral         8     'he3       
#   PWDATA             integral         32    'hffffffff 
#   PRDATA             integral         32    'h0xxxxxxxx
#   PSTRB              integral         4     'h3        
#   PWRITE             integral         1     'h1        
#   PENABLE            integral         1     'h1        
#   PREADY             integral         1     'h1        
#   PSLVERR            integral         1     'h0X       
#   PSEL               da(integral)     0     -          
#   no_of_wait_cycles  integral         32    'd0        
#   wait_enable        integral         1     'dX        
# -------------------------------------------------------
# 
# UVM_INFO ../TEST//master_tc/apb_multi_slave_pwdata_corner_rw_seqs.sv(35) @ 110: uvm_test_top.env_h.agent_hm.seqr_hm@@multi_slv_seq [apb_multi_slave_pwdata_corner_rw_seqs] Transaction-1 sent from MASTER SEQS =
# --------------------------------------------------------------------------------------------------------
# Name                           Type              Size  Value                                            
# --------------------------------------------------------------------------------------------------------
# trans_hm                       apb_master_trans  -     @1875                                            
#   PWRITE                       integral          1     'h1                                              
#   PADDR                        integral          8     'he3                                             
#   PWDATA                       integral          32    'hffffffff                                       
#   PSTRB                        integral          4     'h3                                              
#   PENABLE                      integral          1     'h1                                              
#   PSEL                         da(integral)      4     -                                                
#     [0]                        integral          1     'h0                                              
#     [1]                        integral          1     'h0                                              
#     [2]                        integral          1     'h0                                              
#     [3]                        integral          1     'h1                                              
#   trans_size                   transfer_size_e   2     HALFWORD                                         
#   PREADY                       integral          1     'h0X                                             
#   PRDATA                       integral          32    'h0xxxxxxxx                                      
#   PSLVERR                      integral          1     'h0X                                             
#   begin_time                   time              64    50                                               
#   end_time                     time              64    110                                              
#   depth                        int               32    'd2                                              
#   parent sequence (name)       string            13    multi_slv_seq                                    
#   parent sequence (full name)  string            49    uvm_test_top.env_h.agent_hm.seqr_hm.multi_slv_seq
#   sequencer                    string            35    uvm_test_top.env_h.agent_hm.seqr_hm              
#   Direction                    string            5     WRITE                                            
#   Trans Size                   string            8     HALFWORD                                         
# --------------------------------------------------------------------------------------------------------
# 
# 
# ---------- apb_multi_slave_pwdata_corner_rw_seqs transaction : 2 ----------
# 
# UVM_INFO ../slave_agent/apb_slave_drv.sv(58) @ 110: uvm_test_top.env_h.agent_hs_3.drv_hs [apb_slave_drv] Transaction received at SLAVE-DRIVER =
# -----------------------------------------------------------------------------------------------------
# Name                           Type             Size  Value                                          
# -----------------------------------------------------------------------------------------------------
# trans_hs                       apb_slave_trans  -     @2025                                          
#   PADDR                        integral         8     'h0xx                                          
#   PWDATA                       integral         32    'h0xxxxxxxx                                    
#   PRDATA                       integral         32    'h0xxxxxxxx                                    
#   PSTRB                        integral         4     'h0x                                           
#   PWRITE                       integral         1     'h0X                                           
#   PENABLE                      integral         1     'h0X                                           
#   PREADY                       integral         1     'h0X                                           
#   PSLVERR                      integral         1     'h0X                                           
#   PSEL                         da(integral)     0     -                                              
#   no_of_wait_cycles            integral         32    'd0                                            
#   wait_enable                  integral         1     'd0                                            
#   begin_time                   time             64    110                                            
#   depth                        int              32    'd2                                            
#   parent sequence (name)       string           9     seqs_hs_3                                      
#   parent sequence (full name)  string           47    uvm_test_top.env_h.agent_hs_3.seqr_hs.seqs_hs_3
#   sequencer                    string           37    uvm_test_top.env_h.agent_hs_3.seqr_hs          
# -----------------------------------------------------------------------------------------------------
# 
# UVM_INFO ../master_agent/apb_master_drv.sv(148) @ 110: uvm_test_top.env_h.agent_hm.drv_hm [apb_master_drv] [MASTER-TRANS-2] Data Received at MASTER-DRIVER =
# --------------------------------------------------------------------------------------------------------
# Name                           Type              Size  Value                                            
# --------------------------------------------------------------------------------------------------------
# trans_hm                       apb_master_trans  -     @2020                                            
#   PWRITE                       integral          1     'h1                                              
#   PADDR                        integral          8     'h53                                             
#   PWDATA                       integral          32    'h0                                              
#   PSTRB                        integral          4     'h1                                              
#   PENABLE                      integral          1     'h1                                              
#   PSEL                         da(integral)      0     -                                                
#   trans_size                   transfer_size_e   2     BYTE                                             
#   PREADY                       integral          1     'h0X                                             
#   PRDATA                       integral          32    'h0xxxxxxxx                                      
#   PSLVERR                      integral          1     'h0X                                             
#   begin_time                   time              64    110                                              
#   depth                        int               32    'd2                                              
#   parent sequence (name)       string            13    multi_slv_seq                                    
#   parent sequence (full name)  string            49    uvm_test_top.env_h.agent_hm.seqr_hm.multi_slv_seq
#   sequencer                    string            35    uvm_test_top.env_h.agent_hm.seqr_hm              
#   Direction                    string            5     WRITE                                            
#   Trans Size                   string            4     BYTE                                             
# --------------------------------------------------------------------------------------------------------
# 
# UVM_INFO ../slave_agent/apb_slave_drv.sv(119) @ 150: uvm_test_top.env_h.agent_hs_1.drv_hs [apb_slave_drv] WRITE | ADDR=0x53 | DATA=0x0 | STRB=0x1
# UVM_INFO ../slave_agent/apb_slave_mon.sv(102) @ 170: uvm_test_top.env_h.agent_hs_1.mon_hs [apb_slave_mon] Slave-1 WRITE sampled =
# -------------------------------------------------------
# Name                 Type             Size  Value      
# -------------------------------------------------------
# trans_hs             apb_slave_trans  -     @2003      
#   PADDR              integral         8     'h53       
#   PWDATA             integral         32    'h0        
#   PRDATA             integral         32    'h0xxxxxxxx
#   PSTRB              integral         4     'h1        
#   PWRITE             integral         1     'h1        
#   PENABLE            integral         1     'h1        
#   PREADY             integral         1     'h1        
#   PSLVERR            integral         1     'h0X       
#   PSEL               da(integral)     0     -          
#   no_of_wait_cycles  integral         32    'd0        
#   wait_enable        integral         1     'dX        
# -------------------------------------------------------
# 
# UVM_INFO ../slave_agent/apb_slave_mon.sv(111) @ 170: uvm_test_top.env_h.agent_hs_1.mon_hs [apb_slave_mon] Slave-1 transaction sent to scoreboard = 
# -------------------------------------------------------
# Name                 Type             Size  Value      
# -------------------------------------------------------
# trans_hs             apb_slave_trans  -     @2003      
#   PADDR              integral         8     'h53       
#   PWDATA             integral         32    'h0        
#   PRDATA             integral         32    'h0xxxxxxxx
#   PSTRB              integral         4     'h1        
#   PWRITE             integral         1     'h1        
#   PENABLE            integral         1     'h1        
#   PREADY             integral         1     'h1        
#   PSLVERR            integral         1     'h0X       
#   PSEL               da(integral)     0     -          
#   no_of_wait_cycles  integral         32    'd0        
#   wait_enable        integral         1     'dX        
# -------------------------------------------------------
# 
# UVM_INFO ../master_agent/apb_master_drv.sv(158) @ 170: uvm_test_top.env_h.agent_hm.drv_hm [apb_master_drv] [MASTER-TRANS-2] Transfer Complete — MASTER-DRIVER
# --------------------------------------------------------------------------------------------------------
# Name                           Type              Size  Value                                            
# --------------------------------------------------------------------------------------------------------
# trans_hm                       apb_master_trans  -     @2020                                            
#   PWRITE                       integral          1     'h1                                              
#   PADDR                        integral          8     'h53                                             
#   PWDATA                       integral          32    'h0                                              
#   PSTRB                        integral          4     'h1                                              
#   PENABLE                      integral          1     'h1                                              
#   PSEL                         da(integral)      4     -                                                
#     [0]                        integral          1     'h0                                              
#     [1]                        integral          1     'h1                                              
#     [2]                        integral          1     'h0                                              
#     [3]                        integral          1     'h0                                              
#   trans_size                   transfer_size_e   2     BYTE                                             
#   PREADY                       integral          1     'h0X                                             
#   PRDATA                       integral          32    'h0xxxxxxxx                                      
#   PSLVERR                      integral          1     'h0X                                             
#   begin_time                   time              64    110                                              
#   depth                        int               32    'd2                                              
#   parent sequence (name)       string            13    multi_slv_seq                                    
#   parent sequence (full name)  string            49    uvm_test_top.env_h.agent_hm.seqr_hm.multi_slv_seq
#   sequencer                    string            35    uvm_test_top.env_h.agent_hm.seqr_hm              
#   Direction                    string            5     WRITE                                            
#   Trans Size                   string            4     BYTE                                             
# --------------------------------------------------------------------------------------------------------
# 
# UVM_INFO ../slave_agent/apb_slave_drv.sv(67) @ 170: uvm_test_top.env_h.agent_hs_1.drv_hs [apb_slave_drv] Transaction complete at SLAVE-DRIVER =
# -----------------------------------------------------------------------------------------------------
# Name                           Type             Size  Value                                          
# -----------------------------------------------------------------------------------------------------
# trans_hs                       apb_slave_trans  -     @1867                                          
#   PADDR                        integral         8     'h0xx                                          
#   PWDATA                       integral         32    'h0xxxxxxxx                                    
#   PRDATA                       integral         32    'h0xxxxxxxx                                    
#   PSTRB                        integral         4     'h0x                                           
#   PWRITE                       integral         1     'h0X                                           
#   PENABLE                      integral         1     'h0X                                           
#   PREADY                       integral         1     'h0X                                           
#   PSLVERR                      integral         1     'h0X                                           
#   PSEL                         da(integral)     0     -                                              
#   no_of_wait_cycles            integral         32    'd0                                            
#   wait_enable                  integral         1     'd0                                            
#   begin_time                   time             64    50                                             
#   depth                        int              32    'd2                                            
#   parent sequence (name)       string           9     seqs_hs_1                                      
#   parent sequence (full name)  string           47    uvm_test_top.env_h.agent_hs_1.seqr_hs.seqs_hs_1
#   sequencer                    string           37    uvm_test_top.env_h.agent_hs_1.seqr_hs          
# -----------------------------------------------------------------------------------------------------
# 
# UVM_INFO ../env/apb_sb.sv(127) @ 170: uvm_test_top.env_h.sb_h [apb_sb] Data received from slave 1 monitor = 
# -------------------------------------------------------
# Name                 Type             Size  Value      
# -------------------------------------------------------
# trans_hs             apb_slave_trans  -     @2003      
#   PADDR              integral         8     'h53       
#   PWDATA             integral         32    'h0        
#   PRDATA             integral         32    'h0xxxxxxxx
#   PSTRB              integral         4     'h1        
#   PWRITE             integral         1     'h1        
#   PENABLE            integral         1     'h1        
#   PREADY             integral         1     'h1        
#   PSLVERR            integral         1     'h0X       
#   PSEL               da(integral)     0     -          
#   no_of_wait_cycles  integral         32    'd0        
#   wait_enable        integral         1     'dX        
# -------------------------------------------------------
# 
# UVM_INFO ../TEST//master_tc/apb_multi_slave_pwdata_corner_rw_seqs.sv(35) @ 170: uvm_test_top.env_h.agent_hm.seqr_hm@@multi_slv_seq [apb_multi_slave_pwdata_corner_rw_seqs] Transaction-2 sent from MASTER SEQS =
# --------------------------------------------------------------------------------------------------------
# Name                           Type              Size  Value                                            
# --------------------------------------------------------------------------------------------------------
# trans_hm                       apb_master_trans  -     @2020                                            
#   PWRITE                       integral          1     'h1                                              
#   PADDR                        integral          8     'h53                                             
#   PWDATA                       integral          32    'h0                                              
#   PSTRB                        integral          4     'h1                                              
#   PENABLE                      integral          1     'h1                                              
#   PSEL                         da(integral)      4     -                                                
#     [0]                        integral          1     'h0                                              
#     [1]                        integral          1     'h1                                              
#     [2]                        integral          1     'h0                                              
#     [3]                        integral          1     'h0                                              
#   trans_size                   transfer_size_e   2     BYTE                                             
#   PREADY                       integral          1     'h0X                                             
#   PRDATA                       integral          32    'h0xxxxxxxx                                      
#   PSLVERR                      integral          1     'h0X                                             
#   begin_time                   time              64    110                                              
#   end_time                     time              64    170                                              
#   depth                        int               32    'd2                                              
#   parent sequence (name)       string            13    multi_slv_seq                                    
#   parent sequence (full name)  string            49    uvm_test_top.env_h.agent_hm.seqr_hm.multi_slv_seq
#   sequencer                    string            35    uvm_test_top.env_h.agent_hm.seqr_hm              
#   Direction                    string            5     WRITE                                            
#   Trans Size                   string            4     BYTE                                             
# --------------------------------------------------------------------------------------------------------
# 
# 
# ---------- apb_multi_slave_pwdata_corner_rw_seqs transaction : 3 ----------
# 
# UVM_INFO ../slave_agent/apb_slave_drv.sv(58) @ 170: uvm_test_top.env_h.agent_hs_1.drv_hs [apb_slave_drv] Transaction received at SLAVE-DRIVER =
# -----------------------------------------------------------------------------------------------------
# Name                           Type             Size  Value                                          
# -----------------------------------------------------------------------------------------------------
# trans_hs                       apb_slave_trans  -     @2038                                          
#   PADDR                        integral         8     'h0xx                                          
#   PWDATA                       integral         32    'h0xxxxxxxx                                    
#   PRDATA                       integral         32    'h0xxxxxxxx                                    
#   PSTRB                        integral         4     'h0x                                           
#   PWRITE                       integral         1     'h0X                                           
#   PENABLE                      integral         1     'h0X                                           
#   PREADY                       integral         1     'h0X                                           
#   PSLVERR                      integral         1     'h0X                                           
#   PSEL                         da(integral)     0     -                                              
#   no_of_wait_cycles            integral         32    'd0                                            
#   wait_enable                  integral         1     'd0                                            
#   begin_time                   time             64    170                                            
#   depth                        int              32    'd2                                            
#   parent sequence (name)       string           9     seqs_hs_1                                      
#   parent sequence (full name)  string           47    uvm_test_top.env_h.agent_hs_1.seqr_hs.seqs_hs_1
#   sequencer                    string           37    uvm_test_top.env_h.agent_hs_1.seqr_hs          
# -----------------------------------------------------------------------------------------------------
# 
# UVM_INFO ../master_agent/apb_master_drv.sv(148) @ 170: uvm_test_top.env_h.agent_hm.drv_hm [apb_master_drv] [MASTER-TRANS-3] Data Received at MASTER-DRIVER =
# --------------------------------------------------------------------------------------------------------
# Name                           Type              Size  Value                                            
# --------------------------------------------------------------------------------------------------------
# trans_hm                       apb_master_trans  -     @2033                                            
#   PWRITE                       integral          1     'h1                                              
#   PADDR                        integral          8     'hc3                                             
#   PWDATA                       integral          32    'h0                                              
#   PSTRB                        integral          4     'h3                                              
#   PENABLE                      integral          1     'h1                                              
#   PSEL                         da(integral)      0     -                                                
#   trans_size                   transfer_size_e   2     HALFWORD                                         
#   PREADY                       integral          1     'h0X                                             
#   PRDATA                       integral          32    'h0xxxxxxxx                                      
#   PSLVERR                      integral          1     'h0X                                             
#   begin_time                   time              64    170                                              
#   depth                        int               32    'd2                                              
#   parent sequence (name)       string            13    multi_slv_seq                                    
#   parent sequence (full name)  string            49    uvm_test_top.env_h.agent_hm.seqr_hm.multi_slv_seq
#   sequencer                    string            35    uvm_test_top.env_h.agent_hm.seqr_hm              
#   Direction                    string            5     WRITE                                            
#   Trans Size                   string            8     HALFWORD                                         
# --------------------------------------------------------------------------------------------------------
# 
# UVM_INFO ../slave_agent/apb_slave_drv.sv(119) @ 210: uvm_test_top.env_h.agent_hs_3.drv_hs [apb_slave_drv] WRITE | ADDR=0xc3 | DATA=0x0 | STRB=0x3
# UVM_INFO ../slave_agent/apb_slave_mon.sv(102) @ 230: uvm_test_top.env_h.agent_hs_3.mon_hs [apb_slave_mon] Slave-3 WRITE sampled =
# -------------------------------------------------------
# Name                 Type             Size  Value      
# -------------------------------------------------------
# trans_hs             apb_slave_trans  -     @2015      
#   PADDR              integral         8     'hc3       
#   PWDATA             integral         32    'h0        
#   PRDATA             integral         32    'h0xxxxxxxx
#   PSTRB              integral         4     'h3        
#   PWRITE             integral         1     'h1        
#   PENABLE            integral         1     'h1        
#   PREADY             integral         1     'h1        
#   PSLVERR            integral         1     'h0X       
#   PSEL               da(integral)     0     -          
#   no_of_wait_cycles  integral         32    'd0        
#   wait_enable        integral         1     'dX        
# -------------------------------------------------------
# 
# UVM_INFO ../slave_agent/apb_slave_mon.sv(111) @ 230: uvm_test_top.env_h.agent_hs_3.mon_hs [apb_slave_mon] Slave-3 transaction sent to scoreboard = 
# -------------------------------------------------------
# Name                 Type             Size  Value      
# -------------------------------------------------------
# trans_hs             apb_slave_trans  -     @2015      
#   PADDR              integral         8     'hc3       
#   PWDATA             integral         32    'h0        
#   PRDATA             integral         32    'h0xxxxxxxx
#   PSTRB              integral         4     'h3        
#   PWRITE             integral         1     'h1        
#   PENABLE            integral         1     'h1        
#   PREADY             integral         1     'h1        
#   PSLVERR            integral         1     'h0X       
#   PSEL               da(integral)     0     -          
#   no_of_wait_cycles  integral         32    'd0        
#   wait_enable        integral         1     'dX        
# -------------------------------------------------------
# 
# UVM_INFO ../master_agent/apb_master_drv.sv(158) @ 230: uvm_test_top.env_h.agent_hm.drv_hm [apb_master_drv] [MASTER-TRANS-3] Transfer Complete — MASTER-DRIVER
# --------------------------------------------------------------------------------------------------------
# Name                           Type              Size  Value                                            
# --------------------------------------------------------------------------------------------------------
# trans_hm                       apb_master_trans  -     @2033                                            
#   PWRITE                       integral          1     'h1                                              
#   PADDR                        integral          8     'hc3                                             
#   PWDATA                       integral          32    'h0                                              
#   PSTRB                        integral          4     'h3                                              
#   PENABLE                      integral          1     'h1                                              
#   PSEL                         da(integral)      4     -                                                
#     [0]                        integral          1     'h0                                              
#     [1]                        integral          1     'h0                                              
#     [2]                        integral          1     'h0                                              
#     [3]                        integral          1     'h1                                              
#   trans_size                   transfer_size_e   2     HALFWORD                                         
#   PREADY                       integral          1     'h0X                                             
#   PRDATA                       integral          32    'h0xxxxxxxx                                      
#   PSLVERR                      integral          1     'h0X                                             
#   begin_time                   time              64    170                                              
#   depth                        int               32    'd2                                              
#   parent sequence (name)       string            13    multi_slv_seq                                    
#   parent sequence (full name)  string            49    uvm_test_top.env_h.agent_hm.seqr_hm.multi_slv_seq
#   sequencer                    string            35    uvm_test_top.env_h.agent_hm.seqr_hm              
#   Direction                    string            5     WRITE                                            
#   Trans Size                   string            8     HALFWORD                                         
# --------------------------------------------------------------------------------------------------------
# 
# UVM_INFO ../slave_agent/apb_slave_drv.sv(67) @ 230: uvm_test_top.env_h.agent_hs_3.drv_hs [apb_slave_drv] Transaction complete at SLAVE-DRIVER =
# -----------------------------------------------------------------------------------------------------
# Name                           Type             Size  Value                                          
# -----------------------------------------------------------------------------------------------------
# trans_hs                       apb_slave_trans  -     @2025                                          
#   PADDR                        integral         8     'h0xx                                          
#   PWDATA                       integral         32    'h0xxxxxxxx                                    
#   PRDATA                       integral         32    'h0xxxxxxxx                                    
#   PSTRB                        integral         4     'h0x                                           
#   PWRITE                       integral         1     'h0X                                           
#   PENABLE                      integral         1     'h0X                                           
#   PREADY                       integral         1     'h0X                                           
#   PSLVERR                      integral         1     'h0X                                           
#   PSEL                         da(integral)     0     -                                              
#   no_of_wait_cycles            integral         32    'd0                                            
#   wait_enable                  integral         1     'd0                                            
#   begin_time                   time             64    110                                            
#   depth                        int              32    'd2                                            
#   parent sequence (name)       string           9     seqs_hs_3                                      
#   parent sequence (full name)  string           47    uvm_test_top.env_h.agent_hs_3.seqr_hs.seqs_hs_3
#   sequencer                    string           37    uvm_test_top.env_h.agent_hs_3.seqr_hs          
# -----------------------------------------------------------------------------------------------------
# 
# UVM_INFO ../env/apb_sb.sv(127) @ 230: uvm_test_top.env_h.sb_h [apb_sb] Data received from slave 3 monitor = 
# -------------------------------------------------------
# Name                 Type             Size  Value      
# -------------------------------------------------------
# trans_hs             apb_slave_trans  -     @2015      
#   PADDR              integral         8     'hc3       
#   PWDATA             integral         32    'h0        
#   PRDATA             integral         32    'h0xxxxxxxx
#   PSTRB              integral         4     'h3        
#   PWRITE             integral         1     'h1        
#   PENABLE            integral         1     'h1        
#   PREADY             integral         1     'h1        
#   PSLVERR            integral         1     'h0X       
#   PSEL               da(integral)     0     -          
#   no_of_wait_cycles  integral         32    'd0        
#   wait_enable        integral         1     'dX        
# -------------------------------------------------------
# 
# UVM_INFO ../TEST//master_tc/apb_multi_slave_pwdata_corner_rw_seqs.sv(35) @ 230: uvm_test_top.env_h.agent_hm.seqr_hm@@multi_slv_seq [apb_multi_slave_pwdata_corner_rw_seqs] Transaction-3 sent from MASTER SEQS =
# --------------------------------------------------------------------------------------------------------
# Name                           Type              Size  Value                                            
# --------------------------------------------------------------------------------------------------------
# trans_hm                       apb_master_trans  -     @2033                                            
#   PWRITE                       integral          1     'h1                                              
#   PADDR                        integral          8     'hc3                                             
#   PWDATA                       integral          32    'h0                                              
#   PSTRB                        integral          4     'h3                                              
#   PENABLE                      integral          1     'h1                                              
#   PSEL                         da(integral)      4     -                                                
#     [0]                        integral          1     'h0                                              
#     [1]                        integral          1     'h0                                              
#     [2]                        integral          1     'h0                                              
#     [3]                        integral          1     'h1                                              
#   trans_size                   transfer_size_e   2     HALFWORD                                         
#   PREADY                       integral          1     'h0X                                             
#   PRDATA                       integral          32    'h0xxxxxxxx                                      
#   PSLVERR                      integral          1     'h0X                                             
#   begin_time                   time              64    170                                              
#   end_time                     time              64    230                                              
#   depth                        int               32    'd2                                              
#   parent sequence (name)       string            13    multi_slv_seq                                    
#   parent sequence (full name)  string            49    uvm_test_top.env_h.agent_hm.seqr_hm.multi_slv_seq
#   sequencer                    string            35    uvm_test_top.env_h.agent_hm.seqr_hm              
#   Direction                    string            5     WRITE                                            
#   Trans Size                   string            8     HALFWORD                                         
# --------------------------------------------------------------------------------------------------------
# 
# 
# ---------- apb_multi_slave_pwdata_corner_rw_seqs transaction : 4 ----------
# 
# UVM_INFO ../slave_agent/apb_slave_drv.sv(58) @ 230: uvm_test_top.env_h.agent_hs_3.drv_hs [apb_slave_drv] Transaction received at SLAVE-DRIVER =
# -----------------------------------------------------------------------------------------------------
# Name                           Type             Size  Value                                          
# -----------------------------------------------------------------------------------------------------
# trans_hs                       apb_slave_trans  -     @2050                                          
#   PADDR                        integral         8     'h0xx                                          
#   PWDATA                       integral         32    'h0xxxxxxxx                                    
#   PRDATA                       integral         32    'h0xxxxxxxx                                    
#   PSTRB                        integral         4     'h0x                                           
#   PWRITE                       integral         1     'h0X                                           
#   PENABLE                      integral         1     'h0X                                           
#   PREADY                       integral         1     'h0X                                           
#   PSLVERR                      integral         1     'h0X                                           
#   PSEL                         da(integral)     0     -                                              
#   no_of_wait_cycles            integral         32    'd0                                            
#   wait_enable                  integral         1     'd0                                            
#   begin_time                   time             64    230                                            
#   depth                        int              32    'd2                                            
#   parent sequence (name)       string           9     seqs_hs_3                                      
#   parent sequence (full name)  string           47    uvm_test_top.env_h.agent_hs_3.seqr_hs.seqs_hs_3
#   sequencer                    string           37    uvm_test_top.env_h.agent_hs_3.seqr_hs          
# -----------------------------------------------------------------------------------------------------
# 
# UVM_INFO ../master_agent/apb_master_drv.sv(148) @ 230: uvm_test_top.env_h.agent_hm.drv_hm [apb_master_drv] [MASTER-TRANS-4] Data Received at MASTER-DRIVER =
# --------------------------------------------------------------------------------------------------------
# Name                           Type              Size  Value                                            
# --------------------------------------------------------------------------------------------------------
# trans_hm                       apb_master_trans  -     @2046                                            
#   PWRITE                       integral          1     'h1                                              
#   PADDR                        integral          8     'h74                                             
#   PWDATA                       integral          32    'h1                                              
#   PSTRB                        integral          4     'h1                                              
#   PENABLE                      integral          1     'h1                                              
#   PSEL                         da(integral)      0     -                                                
#   trans_size                   transfer_size_e   2     BYTE                                             
#   PREADY                       integral          1     'h0X                                             
#   PRDATA                       integral          32    'h0xxxxxxxx                                      
#   PSLVERR                      integral          1     'h0X                                             
#   begin_time                   time              64    230                                              
#   depth                        int               32    'd2                                              
#   parent sequence (name)       string            13    multi_slv_seq                                    
#   parent sequence (full name)  string            49    uvm_test_top.env_h.agent_hm.seqr_hm.multi_slv_seq
#   sequencer                    string            35    uvm_test_top.env_h.agent_hm.seqr_hm              
#   Direction                    string            5     WRITE                                            
#   Trans Size                   string            4     BYTE                                             
# --------------------------------------------------------------------------------------------------------
# 
# UVM_INFO ../slave_agent/apb_slave_drv.sv(119) @ 270: uvm_test_top.env_h.agent_hs_1.drv_hs [apb_slave_drv] WRITE | ADDR=0x74 | DATA=0x1 | STRB=0x1
# UVM_INFO ../slave_agent/apb_slave_mon.sv(102) @ 290: uvm_test_top.env_h.agent_hs_1.mon_hs [apb_slave_mon] Slave-1 WRITE sampled =
# -------------------------------------------------------
# Name                 Type             Size  Value      
# -------------------------------------------------------
# trans_hs             apb_slave_trans  -     @2029      
#   PADDR              integral         8     'h74       
#   PWDATA             integral         32    'h1        
#   PRDATA             integral         32    'h0xxxxxxxx
#   PSTRB              integral         4     'h1        
#   PWRITE             integral         1     'h1        
#   PENABLE            integral         1     'h1        
#   PREADY             integral         1     'h1        
#   PSLVERR            integral         1     'h0X       
#   PSEL               da(integral)     0     -          
#   no_of_wait_cycles  integral         32    'd0        
#   wait_enable        integral         1     'dX        
# -------------------------------------------------------
# 
# UVM_INFO ../slave_agent/apb_slave_mon.sv(111) @ 290: uvm_test_top.env_h.agent_hs_1.mon_hs [apb_slave_mon] Slave-1 transaction sent to scoreboard = 
# -------------------------------------------------------
# Name                 Type             Size  Value      
# -------------------------------------------------------
# trans_hs             apb_slave_trans  -     @2029      
#   PADDR              integral         8     'h74       
#   PWDATA             integral         32    'h1        
#   PRDATA             integral         32    'h0xxxxxxxx
#   PSTRB              integral         4     'h1        
#   PWRITE             integral         1     'h1        
#   PENABLE            integral         1     'h1        
#   PREADY             integral         1     'h1        
#   PSLVERR            integral         1     'h0X       
#   PSEL               da(integral)     0     -          
#   no_of_wait_cycles  integral         32    'd0        
#   wait_enable        integral         1     'dX        
# -------------------------------------------------------
# 
# UVM_INFO ../master_agent/apb_master_drv.sv(158) @ 290: uvm_test_top.env_h.agent_hm.drv_hm [apb_master_drv] [MASTER-TRANS-4] Transfer Complete — MASTER-DRIVER
# --------------------------------------------------------------------------------------------------------
# Name                           Type              Size  Value                                            
# --------------------------------------------------------------------------------------------------------
# trans_hm                       apb_master_trans  -     @2046                                            
#   PWRITE                       integral          1     'h1                                              
#   PADDR                        integral          8     'h74                                             
#   PWDATA                       integral          32    'h1                                              
#   PSTRB                        integral          4     'h1                                              
#   PENABLE                      integral          1     'h1                                              
#   PSEL                         da(integral)      4     -                                                
#     [0]                        integral          1     'h0                                              
#     [1]                        integral          1     'h1                                              
#     [2]                        integral          1     'h0                                              
#     [3]                        integral          1     'h0                                              
#   trans_size                   transfer_size_e   2     BYTE                                             
#   PREADY                       integral          1     'h0X                                             
#   PRDATA                       integral          32    'h0xxxxxxxx                                      
#   PSLVERR                      integral          1     'h0X                                             
#   begin_time                   time              64    230                                              
#   depth                        int               32    'd2                                              
#   parent sequence (name)       string            13    multi_slv_seq                                    
#   parent sequence (full name)  string            49    uvm_test_top.env_h.agent_hm.seqr_hm.multi_slv_seq
#   sequencer                    string            35    uvm_test_top.env_h.agent_hm.seqr_hm              
#   Direction                    string            5     WRITE                                            
#   Trans Size                   string            4     BYTE                                             
# --------------------------------------------------------------------------------------------------------
# 
# UVM_INFO ../slave_agent/apb_slave_drv.sv(67) @ 290: uvm_test_top.env_h.agent_hs_1.drv_hs [apb_slave_drv] Transaction complete at SLAVE-DRIVER =
# -----------------------------------------------------------------------------------------------------
# Name                           Type             Size  Value                                          
# -----------------------------------------------------------------------------------------------------
# trans_hs                       apb_slave_trans  -     @2038                                          
#   PADDR                        integral         8     'h0xx                                          
#   PWDATA                       integral         32    'h0xxxxxxxx                                    
#   PRDATA                       integral         32    'h0xxxxxxxx                                    
#   PSTRB                        integral         4     'h0x                                           
#   PWRITE                       integral         1     'h0X                                           
#   PENABLE                      integral         1     'h0X                                           
#   PREADY                       integral         1     'h0X                                           
#   PSLVERR                      integral         1     'h0X                                           
#   PSEL                         da(integral)     0     -                                              
#   no_of_wait_cycles            integral         32    'd0                                            
#   wait_enable                  integral         1     'd0                                            
#   begin_time                   time             64    170                                            
#   depth                        int              32    'd2                                            
#   parent sequence (name)       string           9     seqs_hs_1                                      
#   parent sequence (full name)  string           47    uvm_test_top.env_h.agent_hs_1.seqr_hs.seqs_hs_1
#   sequencer                    string           37    uvm_test_top.env_h.agent_hs_1.seqr_hs          
# -----------------------------------------------------------------------------------------------------
# 
# UVM_INFO ../env/apb_sb.sv(127) @ 290: uvm_test_top.env_h.sb_h [apb_sb] Data received from slave 1 monitor = 
# -------------------------------------------------------
# Name                 Type             Size  Value      
# -------------------------------------------------------
# trans_hs             apb_slave_trans  -     @2029      
#   PADDR              integral         8     'h74       
#   PWDATA             integral         32    'h1        
#   PRDATA             integral         32    'h0xxxxxxxx
#   PSTRB              integral         4     'h1        
#   PWRITE             integral         1     'h1        
#   PENABLE            integral         1     'h1        
#   PREADY             integral         1     'h1        
#   PSLVERR            integral         1     'h0X       
#   PSEL               da(integral)     0     -          
#   no_of_wait_cycles  integral         32    'd0        
#   wait_enable        integral         1     'dX        
# -------------------------------------------------------
# 
# UVM_INFO ../TEST//master_tc/apb_multi_slave_pwdata_corner_rw_seqs.sv(35) @ 290: uvm_test_top.env_h.agent_hm.seqr_hm@@multi_slv_seq [apb_multi_slave_pwdata_corner_rw_seqs] Transaction-4 sent from MASTER SEQS =
# --------------------------------------------------------------------------------------------------------
# Name                           Type              Size  Value                                            
# --------------------------------------------------------------------------------------------------------
# trans_hm                       apb_master_trans  -     @2046                                            
#   PWRITE                       integral          1     'h1                                              
#   PADDR                        integral          8     'h74                                             
#   PWDATA                       integral          32    'h1                                              
#   PSTRB                        integral          4     'h1                                              
#   PENABLE                      integral          1     'h1                                              
#   PSEL                         da(integral)      4     -                                                
#     [0]                        integral          1     'h0                                              
#     [1]                        integral          1     'h1                                              
#     [2]                        integral          1     'h0                                              
#     [3]                        integral          1     'h0                                              
#   trans_size                   transfer_size_e   2     BYTE                                             
#   PREADY                       integral          1     'h0X                                             
#   PRDATA                       integral          32    'h0xxxxxxxx                                      
#   PSLVERR                      integral          1     'h0X                                             
#   begin_time                   time              64    230                                              
#   end_time                     time              64    290                                              
#   depth                        int               32    'd2                                              
#   parent sequence (name)       string            13    multi_slv_seq                                    
#   parent sequence (full name)  string            49    uvm_test_top.env_h.agent_hm.seqr_hm.multi_slv_seq
#   sequencer                    string            35    uvm_test_top.env_h.agent_hm.seqr_hm              
#   Direction                    string            5     WRITE                                            
#   Trans Size                   string            4     BYTE                                             
# --------------------------------------------------------------------------------------------------------
# 
# 
# ---------- apb_multi_slave_pwdata_corner_rw_seqs transaction : 5 ----------
# 
# UVM_INFO ../slave_agent/apb_slave_drv.sv(58) @ 290: uvm_test_top.env_h.agent_hs_1.drv_hs [apb_slave_drv] Transaction received at SLAVE-DRIVER =
# -----------------------------------------------------------------------------------------------------
# Name                           Type             Size  Value                                          
# -----------------------------------------------------------------------------------------------------
# trans_hs                       apb_slave_trans  -     @2062                                          
#   PADDR                        integral         8     'h0xx                                          
#   PWDATA                       integral         32    'h0xxxxxxxx                                    
#   PRDATA                       integral         32    'h0xxxxxxxx                                    
#   PSTRB                        integral         4     'h0x                                           
#   PWRITE                       integral         1     'h0X                                           
#   PENABLE                      integral         1     'h0X                                           
#   PREADY                       integral         1     'h0X                                           
#   PSLVERR                      integral         1     'h0X                                           
#   PSEL                         da(integral)     0     -                                              
#   no_of_wait_cycles            integral         32    'd0                                            
#   wait_enable                  integral         1     'd0                                            
#   begin_time                   time             64    290                                            
#   depth                        int              32    'd2                                            
#   parent sequence (name)       string           9     seqs_hs_1                                      
#   parent sequence (full name)  string           47    uvm_test_top.env_h.agent_hs_1.seqr_hs.seqs_hs_1
#   sequencer                    string           37    uvm_test_top.env_h.agent_hs_1.seqr_hs          
# -----------------------------------------------------------------------------------------------------
# 
# UVM_INFO ../master_agent/apb_master_drv.sv(148) @ 290: uvm_test_top.env_h.agent_hm.drv_hm [apb_master_drv] [MASTER-TRANS-5] Data Received at MASTER-DRIVER =
# --------------------------------------------------------------------------------------------------------
# Name                           Type              Size  Value                                            
# --------------------------------------------------------------------------------------------------------
# trans_hm                       apb_master_trans  -     @2058                                            
#   PWRITE                       integral          1     'h1                                              
#   PADDR                        integral          8     'hb6                                             
#   PWDATA                       integral          32    'h0                                              
#   PSTRB                        integral          4     'h3                                              
#   PENABLE                      integral          1     'h1                                              
#   PSEL                         da(integral)      0     -                                                
#   trans_size                   transfer_size_e   2     HALFWORD                                         
#   PREADY                       integral          1     'h0X                                             
#   PRDATA                       integral          32    'h0xxxxxxxx                                      
#   PSLVERR                      integral          1     'h0X                                             
#   begin_time                   time              64    290                                              
#   depth                        int               32    'd2                                              
#   parent sequence (name)       string            13    multi_slv_seq                                    
#   parent sequence (full name)  string            49    uvm_test_top.env_h.agent_hm.seqr_hm.multi_slv_seq
#   sequencer                    string            35    uvm_test_top.env_h.agent_hm.seqr_hm              
#   Direction                    string            5     WRITE                                            
#   Trans Size                   string            8     HALFWORD                                         
# --------------------------------------------------------------------------------------------------------
# 
# UVM_INFO ../slave_agent/apb_slave_drv.sv(119) @ 330: uvm_test_top.env_h.agent_hs_2.drv_hs [apb_slave_drv] WRITE | ADDR=0xb6 | DATA=0x0 | STRB=0x3
# UVM_INFO ../slave_agent/apb_slave_mon.sv(102) @ 350: uvm_test_top.env_h.agent_hs_2.mon_hs [apb_slave_mon] Slave-2 WRITE sampled =
# -------------------------------------------------------
# Name                 Type             Size  Value      
# -------------------------------------------------------
# trans_hs             apb_slave_trans  -     @2007      
#   PADDR              integral         8     'hb6       
#   PWDATA             integral         32    'h0        
#   PRDATA             integral         32    'h0xxxxxxxx
#   PSTRB              integral         4     'h3        
#   PWRITE             integral         1     'h1        
#   PENABLE            integral         1     'h1        
#   PREADY             integral         1     'h1        
#   PSLVERR            integral         1     'h0X       
#   PSEL               da(integral)     0     -          
#   no_of_wait_cycles  integral         32    'd0        
#   wait_enable        integral         1     'dX        
# -------------------------------------------------------
# 
# UVM_INFO ../slave_agent/apb_slave_mon.sv(111) @ 350: uvm_test_top.env_h.agent_hs_2.mon_hs [apb_slave_mon] Slave-2 transaction sent to scoreboard = 
# -------------------------------------------------------
# Name                 Type             Size  Value      
# -------------------------------------------------------
# trans_hs             apb_slave_trans  -     @2007      
#   PADDR              integral         8     'hb6       
#   PWDATA             integral         32    'h0        
#   PRDATA             integral         32    'h0xxxxxxxx
#   PSTRB              integral         4     'h3        
#   PWRITE             integral         1     'h1        
#   PENABLE            integral         1     'h1        
#   PREADY             integral         1     'h1        
#   PSLVERR            integral         1     'h0X       
#   PSEL               da(integral)     0     -          
#   no_of_wait_cycles  integral         32    'd0        
#   wait_enable        integral         1     'dX        
# -------------------------------------------------------
# 
# UVM_INFO ../master_agent/apb_master_drv.sv(158) @ 350: uvm_test_top.env_h.agent_hm.drv_hm [apb_master_drv] [MASTER-TRANS-5] Transfer Complete — MASTER-DRIVER
# --------------------------------------------------------------------------------------------------------
# Name                           Type              Size  Value                                            
# --------------------------------------------------------------------------------------------------------
# trans_hm                       apb_master_trans  -     @2058                                            
#   PWRITE                       integral          1     'h1                                              
#   PADDR                        integral          8     'hb6                                             
#   PWDATA                       integral          32    'h0                                              
#   PSTRB                        integral          4     'h3                                              
#   PENABLE                      integral          1     'h1                                              
#   PSEL                         da(integral)      4     -                                                
#     [0]                        integral          1     'h0                                              
#     [1]                        integral          1     'h0                                              
#     [2]                        integral          1     'h1                                              
#     [3]                        integral          1     'h0                                              
#   trans_size                   transfer_size_e   2     HALFWORD                                         
#   PREADY                       integral          1     'h0X                                             
