# vsim -vopt apb_top -c -do "run -all; exit" "+UVM_TESTNAME=apb_max_pready_test" 
# Start time: 19:27:22 on Jun 09,2026
# ** Note: (vsim-3813) Design is being optimized due to module recompilation...
# //  Questa Sim-64
# //  Version 10.7c win64 Aug 18 2018
# //
# //  Copyright 1991-2018 Mentor Graphics Corporation
# //  All Rights Reserved.
# //
# //  QuestaSim and its associated documentation contain trade
# //  secrets and commercial or financial information that are the property of
# //  Mentor Graphics Corporation and are privileged, confidential,
# //  and exempt from disclosure under the Freedom of Information Act,
# //  5 U.S.C. Section 552. Furthermore, this information
# //  is prohibited from disclosure under the Trade Secrets Act,
# //  18 U.S.C. Section 1905.
# //
# Loading sv_std.std
# Loading work.apb_inf(fast)
# Loading mtiUvm.uvm_pkg
# Loading work.apb_pkg(fast)
# Loading work.apb_top_sv_unit(fast)
# Loading work.apb_top(fast)
# Loading work.apb_pkg_sv_unit(fast)
# Loading work.apb_inf(fast)
# Loading mtiUvm.questa_uvm_pkg(fast)
# Loading C:/questasim64_10.7c/uvm-1.1d\win64\uvm_dpi.dll
# run -all
# ----------------------------------------------------------------
# UVM-1.1d
# (C) 2007-2013 Mentor Graphics Corporation
# (C) 2007-2013 Cadence Design Systems, Inc.
# (C) 2006-2013 Synopsys, Inc.
# (C) 2011-2013 Cypress Semiconductor Corp.
# ----------------------------------------------------------------
# 
#   ***********       IMPORTANT RELEASE NOTES         ************
# 
#   You are using a version of the UVM library that has been compiled
#   with `UVM_NO_DEPRECATED undefined.
#   See http://www.eda.org/svdb/view.php?id=3313 for more details.
# 
#   You are using a version of the UVM library that has been compiled
#   with `UVM_OBJECT_MUST_HAVE_CONSTRUCTOR undefined.
#   See http://www.eda.org/svdb/view.php?id=3770 for more details.
# 
#       (Specify +UVM_NO_RELNOTES to turn off this notice)
# 
# UVM_INFO verilog_src/questa_uvm_pkg-1.2/src/questa_uvm_pkg.sv(215) @ 0: reporter [Questa UVM] QUESTA_UVM-1.2.3
# UVM_INFO verilog_src/questa_uvm_pkg-1.2/src/questa_uvm_pkg.sv(216) @ 0: reporter [Questa UVM]  questa_uvm::init(+struct)
# UVM_INFO @ 0: reporter [RNTST] Running test apb_max_pready_test...
# UVM_INFO ../test/apb_base_test.sv(60) @ 0: uvm_test_top [apb_max_pready_test] Build-Phase complete in Test
# UVM_INFO ../env/apb_env.sv(58) @ 0: uvm_test_top.env_h [apb_env] ENV built | slaves=4
# UVM_INFO ../master_agent/apb_master_agent.sv(23) @ 0: uvm_test_top.env_h.agent_hm [apb_master_agent] Executing Build-Phase in Master Agent
# UVM_INFO ../master_agent/apb_master_agent.sv(39) @ 0: uvm_test_top.env_h.agent_hm [apb_master_agent] Build-Phase Complete in Master Agent
# ------ Execution Done Build-Phase in Master Driver -------
# UVM_INFO ../slave_agent/apb_slave_agent.sv(25) @ 0: uvm_test_top.env_h.agent_hs_0 [apb_slave_agent] Executing Build-Phase in Slave Agent
# UVM_INFO ../slave_agent/apb_slave_agent.sv(41) @ 0: uvm_test_top.env_h.agent_hs_0 [apb_slave_agent] Build-Phase Complete in Slave Agent
# UVM_INFO ../slave_agent/apb_slave_drv.sv(30) @ 0: uvm_test_top.env_h.agent_hs_0.drv_hs [apb_slave_drv] Build-Phase Complete in Slave Driver
# UVM_INFO ../slave_agent/apb_slave_agent.sv(25) @ 0: uvm_test_top.env_h.agent_hs_1 [apb_slave_agent] Executing Build-Phase in Slave Agent
# UVM_INFO ../slave_agent/apb_slave_agent.sv(41) @ 0: uvm_test_top.env_h.agent_hs_1 [apb_slave_agent] Build-Phase Complete in Slave Agent
# UVM_INFO ../slave_agent/apb_slave_drv.sv(30) @ 0: uvm_test_top.env_h.agent_hs_1.drv_hs [apb_slave_drv] Build-Phase Complete in Slave Driver
# UVM_INFO ../slave_agent/apb_slave_agent.sv(25) @ 0: uvm_test_top.env_h.agent_hs_2 [apb_slave_agent] Executing Build-Phase in Slave Agent
# UVM_INFO ../slave_agent/apb_slave_agent.sv(41) @ 0: uvm_test_top.env_h.agent_hs_2 [apb_slave_agent] Build-Phase Complete in Slave Agent
# UVM_INFO ../slave_agent/apb_slave_drv.sv(30) @ 0: uvm_test_top.env_h.agent_hs_2.drv_hs [apb_slave_drv] Build-Phase Complete in Slave Driver
# UVM_INFO ../slave_agent/apb_slave_agent.sv(25) @ 0: uvm_test_top.env_h.agent_hs_3 [apb_slave_agent] Executing Build-Phase in Slave Agent
# UVM_INFO ../slave_agent/apb_slave_agent.sv(41) @ 0: uvm_test_top.env_h.agent_hs_3 [apb_slave_agent] Build-Phase Complete in Slave Agent
# UVM_INFO ../slave_agent/apb_slave_drv.sv(30) @ 0: uvm_test_top.env_h.agent_hs_3.drv_hs [apb_slave_drv] Build-Phase Complete in Slave Driver
# UVM_INFO ../master_agent/apb_master_agent.sv(47) @ 0: uvm_test_top.env_h.agent_hm [apb_master_agent] Executing Connect-Phase in Master Agent
# UVM_INFO ../master_agent/apb_master_agent.sv(53) @ 0: uvm_test_top.env_h.agent_hm [apb_master_agent] Connect-Phase Complete in Master Agent
# UVM_INFO ../slave_agent/apb_slave_agent.sv(49) @ 0: uvm_test_top.env_h.agent_hs_0 [apb_slave_agent] Executing Connect-Phase in Slave Agent
# UVM_INFO ../slave_agent/apb_slave_agent.sv(55) @ 0: uvm_test_top.env_h.agent_hs_0 [apb_slave_agent] Connect-Phase Complete in Slave Agent
# UVM_INFO ../slave_agent/apb_slave_agent.sv(49) @ 0: uvm_test_top.env_h.agent_hs_1 [apb_slave_agent] Executing Connect-Phase in Slave Agent
# UVM_INFO ../slave_agent/apb_slave_agent.sv(55) @ 0: uvm_test_top.env_h.agent_hs_1 [apb_slave_agent] Connect-Phase Complete in Slave Agent
# UVM_INFO ../slave_agent/apb_slave_agent.sv(49) @ 0: uvm_test_top.env_h.agent_hs_2 [apb_slave_agent] Executing Connect-Phase in Slave Agent
# UVM_INFO ../slave_agent/apb_slave_agent.sv(55) @ 0: uvm_test_top.env_h.agent_hs_2 [apb_slave_agent] Connect-Phase Complete in Slave Agent
# UVM_INFO ../slave_agent/apb_slave_agent.sv(49) @ 0: uvm_test_top.env_h.agent_hs_3 [apb_slave_agent] Executing Connect-Phase in Slave Agent
# UVM_INFO ../slave_agent/apb_slave_agent.sv(55) @ 0: uvm_test_top.env_h.agent_hs_3 [apb_slave_agent] Connect-Phase Complete in Slave Agent
# UVM_INFO ../env/apb_env.sv(75) @ 0: uvm_test_top.env_h [apb_env] Connect-Phase complete in ENV
# UVM_INFO @ 0: reporter [UVMTOP] UVM testbench topology:
# ------------------------------------------------------------------
# Name                       Type                        Size  Value
# ------------------------------------------------------------------
# uvm_test_top               apb_max_pready_test         -     @475 
#   env_h                    apb_env                     -     @498 
#     agent_hm               apb_master_agent            -     @533 
#       drv_hm               apb_master_drv              -     @599 
#         rsp_port           uvm_analysis_port           -     @614 
#         seq_item_port      uvm_seq_item_pull_port      -     @606 
#       mon_hm               apb_master_mon              -     @584 
#         mas_mon_ap         uvm_analysis_port           -     @591 
#       seqr_hm              apb_master_seqr             -     @622 
#         rsp_export         uvm_analysis_export         -     @629 
#         seq_item_export    uvm_seq_item_pull_imp       -     @723 
#         arbitration_queue  array                       0     -    
#         lock_queue         array                       0     -    
#         num_last_reqs      integral                    32    'd1  
#         num_last_rsps      integral                    32    'd1  
#     agent_hs_0             apb_slave_agent             -     @547 
#       drv_hs               apb_slave_drv               -     @766 
#         rsp_port           uvm_analysis_port           -     @781 
#         seq_item_port      uvm_seq_item_pull_port      -     @773 
#       mon_hs               apb_slave_mon               -     @751 
#         slv_mon_ap         uvm_analysis_port           -     @758 
#       seqr_hs              apb_slave_seqr              -     @789 
#         rsp_export         uvm_analysis_export         -     @796 
#         seq_item_export    uvm_seq_item_pull_imp       -     @890 
#         arbitration_queue  array                       0     -    
#         lock_queue         array                       0     -    
#         num_last_reqs      integral                    32    'd1  
#         num_last_rsps      integral                    32    'd1  
#     agent_hs_1             apb_slave_agent             -     @558 
#       drv_hs               apb_slave_drv               -     @924 
#         rsp_port           uvm_analysis_port           -     @939 
#         seq_item_port      uvm_seq_item_pull_port      -     @931 
#       mon_hs               apb_slave_mon               -     @909 
#         slv_mon_ap         uvm_analysis_port           -     @916 
#       seqr_hs              apb_slave_seqr              -     @947 
#         rsp_export         uvm_analysis_export         -     @954 
#         seq_item_export    uvm_seq_item_pull_imp       -     @1048
#         arbitration_queue  array                       0     -    
#         lock_queue         array                       0     -    
#         num_last_reqs      integral                    32    'd1  
#         num_last_rsps      integral                    32    'd1  
#     agent_hs_2             apb_slave_agent             -     @566 
#       drv_hs               apb_slave_drv               -     @1082
#         rsp_port           uvm_analysis_port           -     @1097
#         seq_item_port      uvm_seq_item_pull_port      -     @1089
#       mon_hs               apb_slave_mon               -     @1067
#         slv_mon_ap         uvm_analysis_port           -     @1074
#       seqr_hs              apb_slave_seqr              -     @1105
#         rsp_export         uvm_analysis_export         -     @1112
#         seq_item_export    uvm_seq_item_pull_imp       -     @1206
#         arbitration_queue  array                       0     -    
#         lock_queue         array                       0     -    
#         num_last_reqs      integral                    32    'd1  
#         num_last_rsps      integral                    32    'd1  
#     agent_hs_3             apb_slave_agent             -     @574 
#       drv_hs               apb_slave_drv               -     @1240
#         rsp_port           uvm_analysis_port           -     @1255
#         seq_item_port      uvm_seq_item_pull_port      -     @1247
#       mon_hs               apb_slave_mon               -     @1225
#         slv_mon_ap         uvm_analysis_port           -     @1232
#       seqr_hs              apb_slave_seqr              -     @1263
#         rsp_export         uvm_analysis_export         -     @1270
#         seq_item_export    uvm_seq_item_pull_imp       -     @1364
#         arbitration_queue  array                       0     -    
#         lock_queue         array                       0     -    
#         num_last_reqs      integral                    32    'd1  
#         num_last_rsps      integral                    32    'd1  
#     sb_h                   apb_sb                      -     @540 
#       mas_mon_fifo_h       uvm_tlm_analysis_fifo #(T)  -     @1381
#         analysis_export    uvm_analysis_imp            -     @1420
#         get_ap             uvm_analysis_port           -     @1412
#         get_peek_export    uvm_get_peek_imp            -     @1396
#         put_ap             uvm_analysis_port           -     @1404
#         put_export         uvm_put_imp                 -     @1388
#       slv_mon_fifo_h_0     uvm_tlm_analysis_fifo #(T)  -     @1449
#         analysis_export    uvm_analysis_imp            -     @1488
#         get_ap             uvm_analysis_port           -     @1480
#         get_peek_export    uvm_get_peek_imp            -     @1464
#         put_ap             uvm_analysis_port           -     @1472
#         put_export         uvm_put_imp                 -     @1456
#       slv_mon_fifo_h_1     uvm_tlm_analysis_fifo #(T)  -     @1496
#         analysis_export    uvm_analysis_imp            -     @1535
#         get_ap             uvm_analysis_port           -     @1527
#         get_peek_export    uvm_get_peek_imp            -     @1511
#         put_ap             uvm_analysis_port           -     @1519
#         put_export         uvm_put_imp                 -     @1503
#       slv_mon_fifo_h_2     uvm_tlm_analysis_fifo #(T)  -     @1543
#         analysis_export    uvm_analysis_imp            -     @1582
#         get_ap             uvm_analysis_port           -     @1574
#         get_peek_export    uvm_get_peek_imp            -     @1558
#         put_ap             uvm_analysis_port           -     @1566
#         put_export         uvm_put_imp                 -     @1550
#       slv_mon_fifo_h_3     uvm_tlm_analysis_fifo #(T)  -     @1590
#         analysis_export    uvm_analysis_imp            -     @1629
#         get_ap             uvm_analysis_port           -     @1621
#         get_peek_export    uvm_get_peek_imp            -     @1605
#         put_ap             uvm_analysis_port           -     @1613
#         put_export         uvm_put_imp                 -     @1597
# ------------------------------------------------------------------
# 
# UVM_INFO ../test/apb_base_test.sv(69) @ 0: uvm_test_top [apb_max_pready_test] End-of-Elaboration complete in Test
# UVM_INFO ../slave_agent/apb_slave_config.sv(52) @ 0: reporter [apb_slave_config] Slave-0 | Range: 0x0–0x3f | is_active=UVM_ACTIVE | wait=0
# UVM_INFO ../slave_agent/apb_slave_config.sv(52) @ 0: reporter [apb_slave_config] Slave-1 | Range: 0x40–0x7f | is_active=UVM_ACTIVE | wait=0
# UVM_INFO ../slave_agent/apb_slave_config.sv(52) @ 0: reporter [apb_slave_config] Slave-2 | Range: 0x80–0xbf | is_active=UVM_ACTIVE | wait=0
# UVM_INFO ../slave_agent/apb_slave_config.sv(52) @ 0: reporter [apb_slave_config] Slave-3 | Range: 0xc0–0xff | is_active=UVM_ACTIVE | wait=0
# 
# ---------- apb_max_pready_seqs transaction : 1 ----------
# 
# 
# ---------- apb_max_pready_seqs transaction : 1 ----------
# 
# 
# ---------- apb_max_pready_seqs transaction : 1 ----------
# 
# 
# ---------- apb_max_pready_seqs transaction : 1 ----------
# 
# 
# ---------- Master Transaction : 1 ----------
# 
# UVM_INFO ../slave_agent/apb_slave_drv.sv(58) @ 50: uvm_test_top.env_h.agent_hs_0.drv_hs [apb_slave_drv] Transaction received at SLAVE-DRIVER =
# ---------------------------------------------------------------------------------------------------------
# Name                           Type             Size  Value                                              
# ---------------------------------------------------------------------------------------------------------
# trans_hs                       apb_slave_trans  -     @1684                                              
#   PADDR                        integral         8     'h0xx                                              
#   PWDATA                       integral         32    'h0xxxxxxxx                                        
#   PRDATA                       integral         32    'h0xxxxxxxx                                        
#   PSTRB                        integral         4     'h0x                                               
#   PWRITE                       integral         1     'h0X                                               
#   PENABLE                      integral         1     'h0X                                               
#   PREADY                       integral         1     'h0X                                               
#   PSLVERR                      integral         1     'h0X                                               
#   PSEL                         da(integral)     0     -                                                  
#   no_of_wait_cycles            integral         32    'd12                                               
#   wait_enable                  integral         1     1                                                  
#   begin_time                   time             64    50                                                 
#   depth                        int              32    'd2                                                
#   parent sequence (name)       string           13    pready_seqs_0                                      
#   parent sequence (full name)  string           51    uvm_test_top.env_h.agent_hs_0.seqr_hs.pready_seqs_0
#   sequencer                    string           37    uvm_test_top.env_h.agent_hs_0.seqr_hs              
# ---------------------------------------------------------------------------------------------------------
# 
# UVM_INFO ../slave_agent/apb_slave_drv.sv(58) @ 50: uvm_test_top.env_h.agent_hs_1.drv_hs [apb_slave_drv] Transaction received at SLAVE-DRIVER =
# ---------------------------------------------------------------------------------------------------------
# Name                           Type             Size  Value                                              
# ---------------------------------------------------------------------------------------------------------
# trans_hs                       apb_slave_trans  -     @1680                                              
#   PADDR                        integral         8     'h0xx                                              
#   PWDATA                       integral         32    'h0xxxxxxxx                                        
#   PRDATA                       integral         32    'h0xxxxxxxx                                        
#   PSTRB                        integral         4     'h0x                                               
#   PWRITE                       integral         1     'h0X                                               
#   PENABLE                      integral         1     'h0X                                               
#   PREADY                       integral         1     'h0X                                               
#   PSLVERR                      integral         1     'h0X                                               
#   PSEL                         da(integral)     0     -                                                  
#   no_of_wait_cycles            integral         32    'd12                                               
#   wait_enable                  integral         1     1                                                  
#   begin_time                   time             64    50                                                 
#   depth                        int              32    'd2                                                
#   parent sequence (name)       string           13    pready_seqs_1                                      
#   parent sequence (full name)  string           51    uvm_test_top.env_h.agent_hs_1.seqr_hs.pready_seqs_1
#   sequencer                    string           37    uvm_test_top.env_h.agent_hs_1.seqr_hs              
# ---------------------------------------------------------------------------------------------------------
# 
# UVM_INFO ../slave_agent/apb_slave_drv.sv(58) @ 50: uvm_test_top.env_h.agent_hs_2.drv_hs [apb_slave_drv] Transaction received at SLAVE-DRIVER =
# ---------------------------------------------------------------------------------------------------------
# Name                           Type             Size  Value                                              
# ---------------------------------------------------------------------------------------------------------
# trans_hs                       apb_slave_trans  -     @1676                                              
#   PADDR                        integral         8     'h0xx                                              
#   PWDATA                       integral         32    'h0xxxxxxxx                                        
#   PRDATA                       integral         32    'h0xxxxxxxx                                        
#   PSTRB                        integral         4     'h0x                                               
#   PWRITE                       integral         1     'h0X                                               
#   PENABLE                      integral         1     'h0X                                               
#   PREADY                       integral         1     'h0X                                               
#   PSLVERR                      integral         1     'h0X                                               
#   PSEL                         da(integral)     0     -                                                  
#   no_of_wait_cycles            integral         32    'd12                                               
#   wait_enable                  integral         1     1                                                  
#   begin_time                   time             64    50                                                 
#   depth                        int              32    'd2                                                
#   parent sequence (name)       string           13    pready_seqs_2                                      
#   parent sequence (full name)  string           51    uvm_test_top.env_h.agent_hs_2.seqr_hs.pready_seqs_2
#   sequencer                    string           37    uvm_test_top.env_h.agent_hs_2.seqr_hs              
# ---------------------------------------------------------------------------------------------------------
# 
# UVM_INFO ../slave_agent/apb_slave_drv.sv(58) @ 50: uvm_test_top.env_h.agent_hs_3.drv_hs [apb_slave_drv] Transaction received at SLAVE-DRIVER =
# ---------------------------------------------------------------------------------------------------------
# Name                           Type             Size  Value                                              
# ---------------------------------------------------------------------------------------------------------
# trans_hs                       apb_slave_trans  -     @1672                                              
#   PADDR                        integral         8     'h0xx                                              
#   PWDATA                       integral         32    'h0xxxxxxxx                                        
#   PRDATA                       integral         32    'h0xxxxxxxx                                        
#   PSTRB                        integral         4     'h0x                                               
#   PWRITE                       integral         1     'h0X                                               
#   PENABLE                      integral         1     'h0X                                               
#   PREADY                       integral         1     'h0X                                               
#   PSLVERR                      integral         1     'h0X                                               
#   PSEL                         da(integral)     0     -                                                  
#   no_of_wait_cycles            integral         32    'd12                                               
#   wait_enable                  integral         1     1                                                  
#   begin_time                   time             64    50                                                 
#   depth                        int              32    'd2                                                
#   parent sequence (name)       string           13    pready_seqs_3                                      
#   parent sequence (full name)  string           51    uvm_test_top.env_h.agent_hs_3.seqr_hs.pready_seqs_3
#   sequencer                    string           37    uvm_test_top.env_h.agent_hs_3.seqr_hs              
# ---------------------------------------------------------------------------------------------------------
# 
# UVM_INFO ../master_agent/apb_master_drv.sv(151) @ 50: uvm_test_top.env_h.agent_hm.drv_hm [apb_master_drv] [MASTER-TRANS-1] Data Received at MASTER-DRIVER =
# --------------------------------------------------------------------------------------------------
# Name                           Type              Size  Value                                      
# --------------------------------------------------------------------------------------------------
# trans_hm                       apb_master_trans  -     @1688                                      
#   PWRITE                       integral          1     'h1                                        
#   PADDR                        integral          8     'hc1                                       
#   PWDATA                       integral          32    'heb203ca4                                 
#   PSTRB                        integral          4     'hf                                        
#   PENABLE                      integral          1     'h1                                        
#   PSEL                         da(integral)      0     -                                          
#   trans_size                   transfer_size_e   2     WORD                                       
#   PREADY                       integral          1     'h0X                                       
#   PRDATA                       integral          32    'h0xxxxxxxx                                
#   PSLVERR                      integral          1     'h0X                                       
#   begin_time                   time              64    50                                         
#   depth                        int               32    'd2                                        
#   parent sequence (name)       string            7     seqs_hm                                    
#   parent sequence (full name)  string            43    uvm_test_top.env_h.agent_hm.seqr_hm.seqs_hm
#   sequencer                    string            35    uvm_test_top.env_h.agent_hm.seqr_hm        
#   Direction                    string            5     WRITE                                      
#   Trans Size                   string            4     WORD                                       
# --------------------------------------------------------------------------------------------------
# 
# UVM_INFO ../slave_agent/apb_slave_drv.sv(119) @ 330: uvm_test_top.env_h.agent_hs_3.drv_hs [apb_slave_drv] WRITE | ADDR=0xc1 | DATA=0xeb203ca4 | STRB=0xf
# UVM_INFO ../slave_agent/apb_slave_mon.sv(95) @ 350: uvm_test_top.env_h.agent_hs_3.mon_hs [apb_slave_mon] Slave-3 WRITE sampled =
# -------------------------------------------------------
# Name                 Type             Size  Value      
# -------------------------------------------------------
# trans_hs             apb_slave_trans  -     @1824      
#   PADDR              integral         8     'hc1       
#   PWDATA             integral         32    'heb203ca4 
#   PRDATA             integral         32    'h0xxxxxxxx
#   PSTRB              integral         4     'hf        
#   PWRITE             integral         1     'h1        
#   PENABLE            integral         1     'h1        
#   PREADY             integral         1     'h1        
#   PSLVERR            integral         1     'h0X       
#   PSEL               da(integral)     0     -          
#   no_of_wait_cycles  integral         32    'd0        
#   wait_enable        integral         1     'dX        
# -------------------------------------------------------
# 
# UVM_INFO ../slave_agent/apb_slave_mon.sv(104) @ 350: uvm_test_top.env_h.agent_hs_3.mon_hs [apb_slave_mon] Slave-3 transaction sent to scoreboard = 
# -------------------------------------------------------
# Name                 Type             Size  Value      
# -------------------------------------------------------
# trans_hs             apb_slave_trans  -     @1824      
#   PADDR              integral         8     'hc1       
#   PWDATA             integral         32    'heb203ca4 
#   PRDATA             integral         32    'h0xxxxxxxx
#   PSTRB              integral         4     'hf        
#   PWRITE             integral         1     'h1        
#   PENABLE            integral         1     'h1        
#   PREADY             integral         1     'h1        
#   PSLVERR            integral         1     'h0X       
#   PSEL               da(integral)     0     -          
#   no_of_wait_cycles  integral         32    'd0        
#   wait_enable        integral         1     'dX        
# -------------------------------------------------------
# 
# UVM_INFO ../master_agent/apb_master_drv.sv(161) @ 350: uvm_test_top.env_h.agent_hm.drv_hm [apb_master_drv] [MASTER-TRANS-1] Transfer Complete — MASTER-DRIVER
# --------------------------------------------------------------------------------------------------
# Name                           Type              Size  Value                                      
# --------------------------------------------------------------------------------------------------
# trans_hm                       apb_master_trans  -     @1688                                      
#   PWRITE                       integral          1     'h1                                        
#   PADDR                        integral          8     'hc1                                       
#   PWDATA                       integral          32    'heb203ca4                                 
#   PSTRB                        integral          4     'hf                                        
#   PENABLE                      integral          1     'h1                                        
#   PSEL                         da(integral)      4     -                                          
#     [0]                        integral          1     'h0                                        
#     [1]                        integral          1     'h0                                        
#     [2]                        integral          1     'h0                                        
#     [3]                        integral          1     'h1                                        
#   trans_size                   transfer_size_e   2     WORD                                       
#   PREADY                       integral          1     'h0X                                       
#   PRDATA                       integral          32    'h0xxxxxxxx                                
#   PSLVERR                      integral          1     'h0X                                       
#   begin_time                   time              64    50                                         
#   depth                        int               32    'd2                                        
#   parent sequence (name)       string            7     seqs_hm                                    
#   parent sequence (full name)  string            43    uvm_test_top.env_h.agent_hm.seqr_hm.seqs_hm
#   sequencer                    string            35    uvm_test_top.env_h.agent_hm.seqr_hm        
#   Direction                    string            5     WRITE                                      
#   Trans Size                   string            4     WORD                                       
# --------------------------------------------------------------------------------------------------
# 
# UVM_INFO ../slave_agent/apb_slave_drv.sv(67) @ 350: uvm_test_top.env_h.agent_hs_3.drv_hs [apb_slave_drv] Transaction complete at SLAVE-DRIVER =
# ---------------------------------------------------------------------------------------------------------
# Name                           Type             Size  Value                                              
# ---------------------------------------------------------------------------------------------------------
# trans_hs                       apb_slave_trans  -     @1672                                              
#   PADDR                        integral         8     'h0xx                                              
#   PWDATA                       integral         32    'h0xxxxxxxx                                        
#   PRDATA                       integral         32    'h0xxxxxxxx                                        
#   PSTRB                        integral         4     'h0x                                               
#   PWRITE                       integral         1     'h0X                                               
#   PENABLE                      integral         1     'h0X                                               
#   PREADY                       integral         1     'h0X                                               
#   PSLVERR                      integral         1     'h0X                                               
#   PSEL                         da(integral)     0     -                                                  
#   no_of_wait_cycles            integral         32    'd12                                               
#   wait_enable                  integral         1     1                                                  
#   begin_time                   time             64    50                                                 
#   depth                        int              32    'd2                                                
#   parent sequence (name)       string           13    pready_seqs_3                                      
#   parent sequence (full name)  string           51    uvm_test_top.env_h.agent_hs_3.seqr_hs.pready_seqs_3
#   sequencer                    string           37    uvm_test_top.env_h.agent_hs_3.seqr_hs              
# ---------------------------------------------------------------------------------------------------------
# 
# UVM_INFO ../env/apb_sb.sv(127) @ 350: uvm_test_top.env_h.sb_h [apb_sb] Data received from slave 3 monitor = 
# -------------------------------------------------------
# Name                 Type             Size  Value      
# -------------------------------------------------------
# trans_hs             apb_slave_trans  -     @1824      
#   PADDR              integral         8     'hc1       
#   PWDATA             integral         32    'heb203ca4 
#   PRDATA             integral         32    'h0xxxxxxxx
#   PSTRB              integral         4     'hf        
#   PWRITE             integral         1     'h1        
#   PENABLE            integral         1     'h1        
#   PREADY             integral         1     'h1        
#   PSLVERR            integral         1     'h0X       
#   PSEL               da(integral)     0     -          
#   no_of_wait_cycles  integral         32    'd0        
#   wait_enable        integral         1     'dX        
# -------------------------------------------------------
# 
# UVM_INFO ../master_agent/apb_master_seqs.sv(30) @ 350: uvm_test_top.env_h.agent_hm.seqr_hm@@seqs_hm [apb_master_seqs] Transaction-1 sent from MASTER SEQS =
# --------------------------------------------------------------------------------------------------
# Name                           Type              Size  Value                                      
# --------------------------------------------------------------------------------------------------
# trans_hm                       apb_master_trans  -     @1688                                      
#   PWRITE                       integral          1     'h1                                        
#   PADDR                        integral          8     'hc1                                       
#   PWDATA                       integral          32    'heb203ca4                                 
#   PSTRB                        integral          4     'hf                                        
#   PENABLE                      integral          1     'h1                                        
#   PSEL                         da(integral)      4     -                                          
#     [0]                        integral          1     'h0                                        
#     [1]                        integral          1     'h0                                        
#     [2]                        integral          1     'h0                                        
#     [3]                        integral          1     'h1                                        
#   trans_size                   transfer_size_e   2     WORD                                       
#   PREADY                       integral          1     'h0X                                       
#   PRDATA                       integral          32    'h0xxxxxxxx                                
#   PSLVERR                      integral          1     'h0X                                       
#   begin_time                   time              64    50                                         
#   end_time                     time              64    350                                        
#   depth                        int               32    'd2                                        
#   parent sequence (name)       string            7     seqs_hm                                    
#   parent sequence (full name)  string            43    uvm_test_top.env_h.agent_hm.seqr_hm.seqs_hm
#   sequencer                    string            35    uvm_test_top.env_h.agent_hm.seqr_hm        
#   Direction                    string            5     WRITE                                      
#   Trans Size                   string            4     WORD                                       
# --------------------------------------------------------------------------------------------------
# 
# 
# ---------- Master Transaction : 2 ----------
# 
# UVM_INFO ../test//slave_tc/apb_max_pready_seqs.sv(34) @ 350: uvm_test_top.env_h.agent_hs_3.seqr_hs@@pready_seqs_3 [apb_max_pready_seqs] Transaction-1 sent from MASTER SEQS =
# ---------------------------------------------------------------------------------------------------------
# Name                           Type             Size  Value                                              
# ---------------------------------------------------------------------------------------------------------
# trans_hs                       apb_slave_trans  -     @1672                                              
#   PADDR                        integral         8     'h0xx                                              
#   PWDATA                       integral         32    'h0xxxxxxxx                                        
#   PRDATA                       integral         32    'h0xxxxxxxx                                        
#   PSTRB                        integral         4     'h0x                                               
#   PWRITE                       integral         1     'h0X                                               
#   PENABLE                      integral         1     'h0X                                               
#   PREADY                       integral         1     'h0X                                               
#   PSLVERR                      integral         1     'h0X                                               
#   PSEL                         da(integral)     0     -                                                  
#   no_of_wait_cycles            integral         32    'd12                                               
#   wait_enable                  integral         1     1                                                  
#   begin_time                   time             64    50                                                 
#   end_time                     time             64    350                                                
#   depth                        int              32    'd2                                                
#   parent sequence (name)       string           13    pready_seqs_3                                      
#   parent sequence (full name)  string           51    uvm_test_top.env_h.agent_hs_3.seqr_hs.pready_seqs_3
#   sequencer                    string           37    uvm_test_top.env_h.agent_hs_3.seqr_hs              
# ---------------------------------------------------------------------------------------------------------
# 
# 
# ---------- apb_max_pready_seqs transaction : 2 ----------
# 
# UVM_INFO ../slave_agent/apb_slave_drv.sv(58) @ 350: uvm_test_top.env_h.agent_hs_3.drv_hs [apb_slave_drv] Transaction received at SLAVE-DRIVER =
# ---------------------------------------------------------------------------------------------------------
# Name                           Type             Size  Value                                              
# ---------------------------------------------------------------------------------------------------------
# trans_hs                       apb_slave_trans  -     @1838                                              
#   PADDR                        integral         8     'h0xx                                              
#   PWDATA                       integral         32    'h0xxxxxxxx                                        
#   PRDATA                       integral         32    'h0xxxxxxxx                                        
#   PSTRB                        integral         4     'h0x                                               
#   PWRITE                       integral         1     'h0X                                               
#   PENABLE                      integral         1     'h0X                                               
#   PREADY                       integral         1     'h0X                                               
#   PSLVERR                      integral         1     'h0X                                               
#   PSEL                         da(integral)     0     -                                                  
#   no_of_wait_cycles            integral         32    'd12                                               
#   wait_enable                  integral         1     1                                                  
#   begin_time                   time             64    350                                                
#   depth                        int              32    'd2                                                
#   parent sequence (name)       string           13    pready_seqs_3                                      
#   parent sequence (full name)  string           51    uvm_test_top.env_h.agent_hs_3.seqr_hs.pready_seqs_3
#   sequencer                    string           37    uvm_test_top.env_h.agent_hs_3.seqr_hs              
# ---------------------------------------------------------------------------------------------------------
# 
# UVM_INFO ../master_agent/apb_master_drv.sv(151) @ 350: uvm_test_top.env_h.agent_hm.drv_hm [apb_master_drv] [MASTER-TRANS-2] Data Received at MASTER-DRIVER =
# --------------------------------------------------------------------------------------------------
# Name                           Type              Size  Value                                      
# --------------------------------------------------------------------------------------------------
# trans_hm                       apb_master_trans  -     @1833                                      
#   PWRITE                       integral          1     'h1                                        
#   PADDR                        integral          8     'h2d                                       
#   PWDATA                       integral          32    'h96074a7d                                 
#   PSTRB                        integral          4     'hf                                        
#   PENABLE                      integral          1     'h1                                        
#   PSEL                         da(integral)      0     -                                          
#   trans_size                   transfer_size_e   2     WORD                                       
#   PREADY                       integral          1     'h0X                                       
#   PRDATA                       integral          32    'h0xxxxxxxx                                
#   PSLVERR                      integral          1     'h0X                                       
#   begin_time                   time              64    350                                        
#   depth                        int               32    'd2                                        
#   parent sequence (name)       string            7     seqs_hm                                    
#   parent sequence (full name)  string            43    uvm_test_top.env_h.agent_hm.seqr_hm.seqs_hm
#   sequencer                    string            35    uvm_test_top.env_h.agent_hm.seqr_hm        
#   Direction                    string            5     WRITE                                      
#   Trans Size                   string            4     WORD                                       
# --------------------------------------------------------------------------------------------------
# 
# UVM_INFO ../slave_agent/apb_slave_drv.sv(119) @ 630: uvm_test_top.env_h.agent_hs_0.drv_hs [apb_slave_drv] WRITE | ADDR=0x2d | DATA=0x96074a7d | STRB=0xf
# UVM_INFO ../slave_agent/apb_slave_mon.sv(95) @ 650: uvm_test_top.env_h.agent_hs_0.mon_hs [apb_slave_mon] Slave-0 WRITE sampled =
# -------------------------------------------------------
# Name                 Type             Size  Value      
# -------------------------------------------------------
# trans_hs             apb_slave_trans  -     @1812      
#   PADDR              integral         8     'h2d       
#   PWDATA             integral         32    'h96074a7d 
#   PRDATA             integral         32    'h0xxxxxxxx
#   PSTRB              integral         4     'hf        
#   PWRITE             integral         1     'h1        
#   PENABLE            integral         1     'h1        
#   PREADY             integral         1     'h1        
#   PSLVERR            integral         1     'h0X       
#   PSEL               da(integral)     0     -          
#   no_of_wait_cycles  integral         32    'd0        
#   wait_enable        integral         1     'dX        
# -------------------------------------------------------
# 
# UVM_INFO ../slave_agent/apb_slave_mon.sv(104) @ 650: uvm_test_top.env_h.agent_hs_0.mon_hs [apb_slave_mon] Slave-0 transaction sent to scoreboard = 
# -------------------------------------------------------
# Name                 Type             Size  Value      
# -------------------------------------------------------
# trans_hs             apb_slave_trans  -     @1812      
#   PADDR              integral         8     'h2d       
#   PWDATA             integral         32    'h96074a7d 
#   PRDATA             integral         32    'h0xxxxxxxx
#   PSTRB              integral         4     'hf        
#   PWRITE             integral         1     'h1        
#   PENABLE            integral         1     'h1        
#   PREADY             integral         1     'h1        
#   PSLVERR            integral         1     'h0X       
#   PSEL               da(integral)     0     -          
#   no_of_wait_cycles  integral         32    'd0        
#   wait_enable        integral         1     'dX        
# -------------------------------------------------------
# 
# UVM_INFO ../master_agent/apb_master_drv.sv(161) @ 650: uvm_test_top.env_h.agent_hm.drv_hm [apb_master_drv] [MASTER-TRANS-2] Transfer Complete — MASTER-DRIVER
# --------------------------------------------------------------------------------------------------
# Name                           Type              Size  Value                                      
# --------------------------------------------------------------------------------------------------
# trans_hm                       apb_master_trans  -     @1833                                      
#   PWRITE                       integral          1     'h1                                        
#   PADDR                        integral          8     'h2d                                       
#   PWDATA                       integral          32    'h96074a7d                                 
#   PSTRB                        integral          4     'hf                                        
#   PENABLE                      integral          1     'h1                                        
#   PSEL                         da(integral)      4     -                                          
#     [0]                        integral          1     'h1                                        
#     [1]                        integral          1     'h0                                        
#     [2]                        integral          1     'h0                                        
#     [3]                        integral          1     'h0                                        
#   trans_size                   transfer_size_e   2     WORD                                       
#   PREADY                       integral          1     'h0X                                       
#   PRDATA                       integral          32    'h0xxxxxxxx                                
#   PSLVERR                      integral          1     'h0X                                       
#   begin_time                   time              64    350                                        
#   depth                        int               32    'd2                                        
#   parent sequence (name)       string            7     seqs_hm                                    
#   parent sequence (full name)  string            43    uvm_test_top.env_h.agent_hm.seqr_hm.seqs_hm
#   sequencer                    string            35    uvm_test_top.env_h.agent_hm.seqr_hm        
#   Direction                    string            5     WRITE                                      
#   Trans Size                   string            4     WORD                                       
# --------------------------------------------------------------------------------------------------
# 
# UVM_INFO ../slave_agent/apb_slave_drv.sv(67) @ 650: uvm_test_top.env_h.agent_hs_0.drv_hs [apb_slave_drv] Transaction complete at SLAVE-DRIVER =
# ---------------------------------------------------------------------------------------------------------
# Name                           Type             Size  Value                                              
# ---------------------------------------------------------------------------------------------------------
# trans_hs                       apb_slave_trans  -     @1684                                              
#   PADDR                        integral         8     'h0xx                                              
#   PWDATA                       integral         32    'h0xxxxxxxx                                        
#   PRDATA                       integral         32    'h0xxxxxxxx                                        
#   PSTRB                        integral         4     'h0x                                               
#   PWRITE                       integral         1     'h0X                                               
#   PENABLE                      integral         1     'h0X                                               
#   PREADY                       integral         1     'h0X                                               
#   PSLVERR                      integral         1     'h0X                                               
#   PSEL                         da(integral)     0     -                                                  
#   no_of_wait_cycles            integral         32    'd12                                               
#   wait_enable                  integral         1     1                                                  
#   begin_time                   time             64    50                                                 
#   depth                        int              32    'd2                                                
#   parent sequence (name)       string           13    pready_seqs_0                                      
#   parent sequence (full name)  string           51    uvm_test_top.env_h.agent_hs_0.seqr_hs.pready_seqs_0
#   sequencer                    string           37    uvm_test_top.env_h.agent_hs_0.seqr_hs              
# ---------------------------------------------------------------------------------------------------------
# 
# UVM_INFO ../env/apb_sb.sv(127) @ 650: uvm_test_top.env_h.sb_h [apb_sb] Data received from slave 0 monitor = 
# -------------------------------------------------------
# Name                 Type             Size  Value      
# -------------------------------------------------------
# trans_hs             apb_slave_trans  -     @1812      
#   PADDR              integral         8     'h2d       
#   PWDATA             integral         32    'h96074a7d 
#   PRDATA             integral         32    'h0xxxxxxxx
#   PSTRB              integral         4     'hf        
#   PWRITE             integral         1     'h1        
#   PENABLE            integral         1     'h1        
#   PREADY             integral         1     'h1        
#   PSLVERR            integral         1     'h0X       
#   PSEL               da(integral)     0     -          
#   no_of_wait_cycles  integral         32    'd0        
#   wait_enable        integral         1     'dX        
# -------------------------------------------------------
# 
# UVM_INFO ../master_agent/apb_master_seqs.sv(30) @ 650: uvm_test_top.env_h.agent_hm.seqr_hm@@seqs_hm [apb_master_seqs] Transaction-2 sent from MASTER SEQS =
# --------------------------------------------------------------------------------------------------
# Name                           Type              Size  Value                                      
# --------------------------------------------------------------------------------------------------
# trans_hm                       apb_master_trans  -     @1833                                      
#   PWRITE                       integral          1     'h1                                        
#   PADDR                        integral          8     'h2d                                       
#   PWDATA                       integral          32    'h96074a7d                                 
#   PSTRB                        integral          4     'hf                                        
#   PENABLE                      integral          1     'h1                                        
#   PSEL                         da(integral)      4     -                                          
#     [0]                        integral          1     'h1                                        
#     [1]                        integral          1     'h0                                        
#     [2]                        integral          1     'h0                                        
#     [3]                        integral          1     'h0                                        
#   trans_size                   transfer_size_e   2     WORD                                       
#   PREADY                       integral          1     'h0X                                       
#   PRDATA                       integral          32    'h0xxxxxxxx                                
#   PSLVERR                      integral          1     'h0X                                       
#   begin_time                   time              64    350                                        
#   end_time                     time              64    650                                        
#   depth                        int               32    'd2                                        
#   parent sequence (name)       string            7     seqs_hm                                    
#   parent sequence (full name)  string            43    uvm_test_top.env_h.agent_hm.seqr_hm.seqs_hm
#   sequencer                    string            35    uvm_test_top.env_h.agent_hm.seqr_hm        
#   Direction                    string            5     WRITE                                      
#   Trans Size                   string            4     WORD                                       
# --------------------------------------------------------------------------------------------------
# 
# 
# ---------- Master Transaction : 3 ----------
# 
# UVM_INFO ../test//slave_tc/apb_max_pready_seqs.sv(34) @ 650: uvm_test_top.env_h.agent_hs_0.seqr_hs@@pready_seqs_0 [apb_max_pready_seqs] Transaction-2 sent from MASTER SEQS =
# ---------------------------------------------------------------------------------------------------------
# Name                           Type             Size  Value                                              
# ---------------------------------------------------------------------------------------------------------
# trans_hs                       apb_slave_trans  -     @1684                                              
#   PADDR                        integral         8     'h0xx                                              
#   PWDATA                       integral         32    'h0xxxxxxxx                                        
#   PRDATA                       integral         32    'h0xxxxxxxx                                        
#   PSTRB                        integral         4     'h0x                                               
#   PWRITE                       integral         1     'h0X                                               
#   PENABLE                      integral         1     'h0X                                               
#   PREADY                       integral         1     'h0X                                               
#   PSLVERR                      integral         1     'h0X                                               
#   PSEL                         da(integral)     0     -                                                  
#   no_of_wait_cycles            integral         32    'd12                                               
#   wait_enable                  integral         1     1                                                  
#   begin_time                   time             64    50                                                 
#   end_time                     time             64    650                                                
#   depth                        int              32    'd2                                                
#   parent sequence (name)       string           13    pready_seqs_0                                      
#   parent sequence (full name)  string           51    uvm_test_top.env_h.agent_hs_0.seqr_hs.pready_seqs_0
#   sequencer                    string           37    uvm_test_top.env_h.agent_hs_0.seqr_hs              
# ---------------------------------------------------------------------------------------------------------
# 
# 
# ---------- apb_max_pready_seqs transaction : 3 ----------
# 
# UVM_INFO ../slave_agent/apb_slave_drv.sv(58) @ 650: uvm_test_top.env_h.agent_hs_0.drv_hs [apb_slave_drv] Transaction received at SLAVE-DRIVER =
# ---------------------------------------------------------------------------------------------------------
# Name                           Type             Size  Value                                              
# ---------------------------------------------------------------------------------------------------------
# trans_hs                       apb_slave_trans  -     @1851                                              
#   PADDR                        integral         8     'h0xx                                              
#   PWDATA                       integral         32    'h0xxxxxxxx                                        
#   PRDATA                       integral         32    'h0xxxxxxxx                                        
#   PSTRB                        integral         4     'h0x                                               
#   PWRITE                       integral         1     'h0X                                               
#   PENABLE                      integral         1     'h0X                                               
#   PREADY                       integral         1     'h0X                                               
#   PSLVERR                      integral         1     'h0X                                               
#   PSEL                         da(integral)     0     -                                                  
#   no_of_wait_cycles            integral         32    'd12                                               
#   wait_enable                  integral         1     1                                                  
#   begin_time                   time             64    650                                                
#   depth                        int              32    'd2                                                
#   parent sequence (name)       string           13    pready_seqs_0                                      
#   parent sequence (full name)  string           51    uvm_test_top.env_h.agent_hs_0.seqr_hs.pready_seqs_0
#   sequencer                    string           37    uvm_test_top.env_h.agent_hs_0.seqr_hs              
# ---------------------------------------------------------------------------------------------------------
# 
# UVM_INFO ../master_agent/apb_master_drv.sv(151) @ 650: uvm_test_top.env_h.agent_hm.drv_hm [apb_master_drv] [MASTER-TRANS-3] Data Received at MASTER-DRIVER =
# --------------------------------------------------------------------------------------------------
# Name                           Type              Size  Value                                      
# --------------------------------------------------------------------------------------------------
# trans_hm                       apb_master_trans  -     @1846                                      
#   PWRITE                       integral          1     'h1                                        
#   PADDR                        integral          8     'h70                                       
#   PWDATA                       integral          32    'h5cfbd0a8                                 
#   PSTRB                        integral          4     'h3                                        
#   PENABLE                      integral          1     'h1                                        
#   PSEL                         da(integral)      0     -                                          
#   trans_size                   transfer_size_e   2     HALFWORD                                   
#   PREADY                       integral          1     'h0X                                       
#   PRDATA                       integral          32    'h0xxxxxxxx                                
#   PSLVERR                      integral          1     'h0X                                       
#   begin_time                   time              64    650                                        
#   depth                        int               32    'd2                                        
#   parent sequence (name)       string            7     seqs_hm                                    
#   parent sequence (full name)  string            43    uvm_test_top.env_h.agent_hm.seqr_hm.seqs_hm
#   sequencer                    string            35    uvm_test_top.env_h.agent_hm.seqr_hm        
#   Direction                    string            5     WRITE                                      
#   Trans Size                   string            8     HALFWORD                                   
# --------------------------------------------------------------------------------------------------
# 
# UVM_INFO ../slave_agent/apb_slave_drv.sv(119) @ 930: uvm_test_top.env_h.agent_hs_1.drv_hs [apb_slave_drv] WRITE | ADDR=0x70 | DATA=0xd0a8 | STRB=0x3
# UVM_INFO ../slave_agent/apb_slave_mon.sv(95) @ 950: uvm_test_top.env_h.agent_hs_1.mon_hs [apb_slave_mon] Slave-1 WRITE sampled =
# -------------------------------------------------------
# Name                 Type             Size  Value      
# -------------------------------------------------------
# trans_hs             apb_slave_trans  -     @1816      
#   PADDR              integral         8     'h70       
#   PWDATA             integral         32    'h5cfbd0a8 
#   PRDATA             integral         32    'h0xxxxxxxx
#   PSTRB              integral         4     'h3        
#   PWRITE             integral         1     'h1        
#   PENABLE            integral         1     'h1        
#   PREADY             integral         1     'h1        
#   PSLVERR            integral         1     'h0X       
#   PSEL               da(integral)     0     -          
#   no_of_wait_cycles  integral         32    'd0        
#   wait_enable        integral         1     'dX        
# -------------------------------------------------------
# 
# UVM_INFO ../slave_agent/apb_slave_mon.sv(104) @ 950: uvm_test_top.env_h.agent_hs_1.mon_hs [apb_slave_mon] Slave-1 transaction sent to scoreboard = 
# -------------------------------------------------------
# Name                 Type             Size  Value      
# -------------------------------------------------------
# trans_hs             apb_slave_trans  -     @1816      
#   PADDR              integral         8     'h70       
#   PWDATA             integral         32    'h5cfbd0a8 
#   PRDATA             integral         32    'h0xxxxxxxx
#   PSTRB              integral         4     'h3        
#   PWRITE             integral         1     'h1        
#   PENABLE            integral         1     'h1        
#   PREADY             integral         1     'h1        
#   PSLVERR            integral         1     'h0X       
#   PSEL               da(integral)     0     -          
#   no_of_wait_cycles  integral         32    'd0        
#   wait_enable        integral         1     'dX        
# -------------------------------------------------------
# 
# UVM_INFO ../master_agent/apb_master_drv.sv(161) @ 950: uvm_test_top.env_h.agent_hm.drv_hm [apb_master_drv] [MASTER-TRANS-3] Transfer Complete — MASTER-DRIVER
# --------------------------------------------------------------------------------------------------
# Name                           Type              Size  Value                                      
# --------------------------------------------------------------------------------------------------
# trans_hm                       apb_master_trans  -     @1846                                      
#   PWRITE                       integral          1     'h1                                        
#   PADDR                        integral          8     'h70                                       
#   PWDATA                       integral          32    'h5cfbd0a8                                 
#   PSTRB                        integral          4     'h3                                        
#   PENABLE                      integral          1     'h1                                        
#   PSEL                         da(integral)      4     -                                          
#     [0]                        integral          1     'h0                                        
#     [1]                        integral          1     'h1                                        
#     [2]                        integral          1     'h0                                        
#     [3]                        integral          1     'h0                                        
#   trans_size                   transfer_size_e   2     HALFWORD                                   
#   PREADY                       integral          1     'h0X                                       
#   PRDATA                       integral          32    'h0xxxxxxxx                                
#   PSLVERR                      integral          1     'h0X                                       
#   begin_time                   time              64    650                                        
#   depth                        int               32    'd2                                        
#   parent sequence (name)       string            7     seqs_hm                                    
#   parent sequence (full name)  string            43    uvm_test_top.env_h.agent_hm.seqr_hm.seqs_hm
#   sequencer                    string            35    uvm_test_top.env_h.agent_hm.seqr_hm        
#   Direction                    string            5     WRITE                                      
#   Trans Size                   string            8     HALFWORD                                   
# --------------------------------------------------------------------------------------------------
# 
# UVM_INFO ../slave_agent/apb_slave_drv.sv(67) @ 950: uvm_test_top.env_h.agent_hs_1.drv_hs [apb_slave_drv] Transaction complete at SLAVE-DRIVER =
# ---------------------------------------------------------------------------------------------------------
# Name                           Type             Size  Value                                              
# ---------------------------------------------------------------------------------------------------------
# trans_hs                       apb_slave_trans  -     @1680                                              
#   PADDR                        integral         8     'h0xx                                              
#   PWDATA                       integral         32    'h0xxxxxxxx                                        
#   PRDATA                       integral         32    'h0xxxxxxxx                                        
#   PSTRB                        integral         4     'h0x                                               
#   PWRITE                       integral         1     'h0X                                               
#   PENABLE                      integral         1     'h0X                                               
#   PREADY                       integral         1     'h0X                                               
#   PSLVERR                      integral         1     'h0X                                               
#   PSEL                         da(integral)     0     -                                                  
#   no_of_wait_cycles            integral         32    'd12                                               
#   wait_enable                  integral         1     1                                                  
#   begin_time                   time             64    50                                                 
#   depth                        int              32    'd2                                                
#   parent sequence (name)       string           13    pready_seqs_1                                      
#   parent sequence (full name)  string           51    uvm_test_top.env_h.agent_hs_1.seqr_hs.pready_seqs_1
#   sequencer                    string           37    uvm_test_top.env_h.agent_hs_1.seqr_hs              
# ---------------------------------------------------------------------------------------------------------
# 
# UVM_INFO ../env/apb_sb.sv(127) @ 950: uvm_test_top.env_h.sb_h [apb_sb] Data received from slave 1 monitor = 
# -------------------------------------------------------
# Name                 Type             Size  Value      
# -------------------------------------------------------
# trans_hs             apb_slave_trans  -     @1816      
#   PADDR              integral         8     'h70       
#   PWDATA             integral         32    'h5cfbd0a8 
#   PRDATA             integral         32    'h0xxxxxxxx
#   PSTRB              integral         4     'h3        
#   PWRITE             integral         1     'h1        
#   PENABLE            integral         1     'h1        
#   PREADY             integral         1     'h1        
#   PSLVERR            integral         1     'h0X       
#   PSEL               da(integral)     0     -          
#   no_of_wait_cycles  integral         32    'd0        
#   wait_enable        integral         1     'dX        
# -------------------------------------------------------
# 
# UVM_INFO ../master_agent/apb_master_seqs.sv(30) @ 950: uvm_test_top.env_h.agent_hm.seqr_hm@@seqs_hm [apb_master_seqs] Transaction-3 sent from MASTER SEQS =
# --------------------------------------------------------------------------------------------------
# Name                           Type              Size  Value                                      
# --------------------------------------------------------------------------------------------------
# trans_hm                       apb_master_trans  -     @1846                                      
#   PWRITE                       integral          1     'h1                                        
#   PADDR                        integral          8     'h70                                       
#   PWDATA                       integral          32    'h5cfbd0a8                                 
#   PSTRB                        integral          4     'h3                                        
#   PENABLE                      integral          1     'h1                                        
#   PSEL                         da(integral)      4     -                                          
#     [0]                        integral          1     'h0                                        
#     [1]                        integral          1     'h1                                        
#     [2]                        integral          1     'h0                                        
#     [3]                        integral          1     'h0                                        
#   trans_size                   transfer_size_e   2     HALFWORD                                   
#   PREADY                       integral          1     'h0X                                       
#   PRDATA                       integral          32    'h0xxxxxxxx                                
#   PSLVERR                      integral          1     'h0X                                       
#   begin_time                   time              64    650                                        
#   end_time                     time              64    950                                        
#   depth                        int               32    'd2                                        
#   parent sequence (name)       string            7     seqs_hm                                    
#   parent sequence (full name)  string            43    uvm_test_top.env_h.agent_hm.seqr_hm.seqs_hm
#   sequencer                    string            35    uvm_test_top.env_h.agent_hm.seqr_hm        
#   Direction                    string            5     WRITE                                      
#   Trans Size                   string            8     HALFWORD                                   
# --------------------------------------------------------------------------------------------------
# 
# 
# ---------- Master Transaction : 4 ----------
# 
# UVM_INFO ../test//slave_tc/apb_max_pready_seqs.sv(34) @ 950: uvm_test_top.env_h.agent_hs_1.seqr_hs@@pready_seqs_1 [apb_max_pready_seqs] Transaction-3 sent from MASTER SEQS =
# ---------------------------------------------------------------------------------------------------------
# Name                           Type             Size  Value                                              
# ---------------------------------------------------------------------------------------------------------
# trans_hs                       apb_slave_trans  -     @1680                                              
#   PADDR                        integral         8     'h0xx                                              
#   PWDATA                       integral         32    'h0xxxxxxxx                                        
#   PRDATA                       integral         32    'h0xxxxxxxx                                        
#   PSTRB                        integral         4     'h0x                                               
#   PWRITE                       integral         1     'h0X                                               
#   PENABLE                      integral         1     'h0X                                               
#   PREADY                       integral         1     'h0X                                               
#   PSLVERR                      integral         1     'h0X                                               
#   PSEL                         da(integral)     0     -                                                  
#   no_of_wait_cycles            integral         32    'd12                                               
#   wait_enable                  integral         1     1                                                  
#   begin_time                   time             64    50                                                 
#   end_time                     time             64    950                                                
#   depth                        int              32    'd2                                                
#   parent sequence (name)       string           13    pready_seqs_1                                      
#   parent sequence (full name)  string           51    uvm_test_top.env_h.agent_hs_1.seqr_hs.pready_seqs_1
#   sequencer                    string           37    uvm_test_top.env_h.agent_hs_1.seqr_hs              
# ---------------------------------------------------------------------------------------------------------
# 
# 
# ---------- apb_max_pready_seqs transaction : 4 ----------
# 
# UVM_INFO ../slave_agent/apb_slave_drv.sv(58) @ 950: uvm_test_top.env_h.agent_hs_1.drv_hs [apb_slave_drv] Transaction received at SLAVE-DRIVER =
# ---------------------------------------------------------------------------------------------------------
# Name                           Type             Size  Value                                              
# ---------------------------------------------------------------------------------------------------------
# trans_hs                       apb_slave_trans  -     @1864                                              
#   PADDR                        integral         8     'h0xx                                              
#   PWDATA                       integral         32    'h0xxxxxxxx                                        
#   PRDATA                       integral         32    'h0xxxxxxxx                                        
#   PSTRB                        integral         4     'h0x                                               
#   PWRITE                       integral         1     'h0X                                               
#   PENABLE                      integral         1     'h0X                                               
#   PREADY                       integral         1     'h0X                                               
#   PSLVERR                      integral         1     'h0X                                               
#   PSEL                         da(integral)     0     -                                                  
#   no_of_wait_cycles            integral         32    'd12                                               
#   wait_enable                  integral         1     1                                                  
#   begin_time                   time             64    950                                                
#   depth                        int              32    'd2                                                
#   parent sequence (name)       string           13    pready_seqs_1                                      
#   parent sequence (full name)  string           51    uvm_test_top.env_h.agent_hs_1.seqr_hs.pready_seqs_1
#   sequencer                    string           37    uvm_test_top.env_h.agent_hs_1.seqr_hs              
# ---------------------------------------------------------------------------------------------------------
# 
# UVM_INFO ../master_agent/apb_master_drv.sv(151) @ 950: uvm_test_top.env_h.agent_hm.drv_hm [apb_master_drv] [MASTER-TRANS-4] Data Received at MASTER-DRIVER =
# --------------------------------------------------------------------------------------------------
# Name                           Type              Size  Value                                      
# --------------------------------------------------------------------------------------------------
# trans_hm                       apb_master_trans  -     @1859                                      
#   PWRITE                       integral          1     'h1                                        
#   PADDR                        integral          8     'h21                                       
#   PWDATA                       integral          32    'h1d200292                                 
#   PSTRB                        integral          4     'hf                                        
#   PENABLE                      integral          1     'h1                                        
#   PSEL                         da(integral)      0     -                                          
#   trans_size                   transfer_size_e   2     WORD                                       
#   PREADY                       integral          1     'h0X                                       
#   PRDATA                       integral          32    'h0xxxxxxxx                                
#   PSLVERR                      integral          1     'h0X                                       
#   begin_time                   time              64    950                                        
#   depth                        int               32    'd2                                        
#   parent sequence (name)       string            7     seqs_hm                                    
#   parent sequence (full name)  string            43    uvm_test_top.env_h.agent_hm.seqr_hm.seqs_hm
#   sequencer                    string            35    uvm_test_top.env_h.agent_hm.seqr_hm        
#   Direction                    string            5     WRITE                                      
#   Trans Size                   string            4     WORD                                       
# --------------------------------------------------------------------------------------------------
# 
# UVM_INFO ../slave_agent/apb_slave_drv.sv(119) @ 1230: uvm_test_top.env_h.agent_hs_0.drv_hs [apb_slave_drv] WRITE | ADDR=0x21 | DATA=0x1d200292 | STRB=0xf
# UVM_INFO ../slave_agent/apb_slave_mon.sv(95) @ 1250: uvm_test_top.env_h.agent_hs_0.mon_hs [apb_slave_mon] Slave-0 WRITE sampled =
# -------------------------------------------------------
# Name                 Type             Size  Value      
# -------------------------------------------------------
# trans_hs             apb_slave_trans  -     @1842      
#   PADDR              integral         8     'h21       
#   PWDATA             integral         32    'h1d200292 
#   PRDATA             integral         32    'h0xxxxxxxx
#   PSTRB              integral         4     'hf        
#   PWRITE             integral         1     'h1        
#   PENABLE            integral         1     'h1        
#   PREADY             integral         1     'h1        
#   PSLVERR            integral         1     'h0X       
#   PSEL               da(integral)     0     -          
#   no_of_wait_cycles  integral         32    'd0        
#   wait_enable        integral         1     'dX        
# -------------------------------------------------------
# 
# UVM_INFO ../slave_agent/apb_slave_mon.sv(104) @ 1250: uvm_test_top.env_h.agent_hs_0.mon_hs [apb_slave_mon] Slave-0 transaction sent to scoreboard = 
# -------------------------------------------------------
# Name                 Type             Size  Value      
# -------------------------------------------------------
# trans_hs             apb_slave_trans  -     @1842      
#   PADDR              integral         8     'h21       
#   PWDATA             integral         32    'h1d200292 
#   PRDATA             integral         32    'h0xxxxxxxx
#   PSTRB              integral         4     'hf        
#   PWRITE             integral         1     'h1        
#   PENABLE            integral         1     'h1        
#   PREADY             integral         1     'h1        
#   PSLVERR            integral         1     'h0X       
#   PSEL               da(integral)     0     -          
#   no_of_wait_cycles  integral         32    'd0        
#   wait_enable        integral         1     'dX        
# -------------------------------------------------------
# 
# UVM_INFO ../master_agent/apb_master_drv.sv(161) @ 1250: uvm_test_top.env_h.agent_hm.drv_hm [apb_master_drv] [MASTER-TRANS-4] Transfer Complete — MASTER-DRIVER
# --------------------------------------------------------------------------------------------------
# Name                           Type              Size  Value                                      
# --------------------------------------------------------------------------------------------------
# trans_hm                       apb_master_trans  -     @1859                                      
#   PWRITE                       integral          1     'h1                                        
#   PADDR                        integral          8     'h21                                       
#   PWDATA                       integral          32    'h1d200292                                 
#   PSTRB                        integral          4     'hf                                        
#   PENABLE                      integral          1     'h1                                        
#   PSEL                         da(integral)      4     -                                          
#     [0]                        integral          1     'h1                                        
#     [1]                        integral          1     'h0                                        
#     [2]                        integral          1     'h0                                        
#     [3]                        integral          1     'h0                                        
#   trans_size                   transfer_size_e   2     WORD                                       
#   PREADY                       integral          1     'h0X                                       
#   PRDATA                       integral          32    'h0xxxxxxxx                                
#   PSLVERR                      integral          1     'h0X                                       
#   begin_time                   time              64    950                                        
#   depth                        int               32    'd2                                        
#   parent sequence (name)       string            7     seqs_hm                                    
#   parent sequence (full name)  string            43    uvm_test_top.env_h.agent_hm.seqr_hm.seqs_hm
#   sequencer                    string            35    uvm_test_top.env_h.agent_hm.seqr_hm        
#   Direction                    string            5     WRITE                                      
#   Trans Size                   string            4     WORD                                       
# --------------------------------------------------------------------------------------------------
# 
# UVM_INFO ../slave_agent/apb_slave_drv.sv(67) @ 1250: uvm_test_top.env_h.agent_hs_0.drv_hs [apb_slave_drv] Transaction complete at SLAVE-DRIVER =
# ---------------------------------------------------------------------------------------------------------
# Name                           Type             Size  Value                                              
# ---------------------------------------------------------------------------------------------------------
# trans_hs                       apb_slave_trans  -     @1851                                              
#   PADDR                        integral         8     'h0xx                                              
#   PWDATA                       integral         32    'h0xxxxxxxx                                        
#   PRDATA                       integral         32    'h0xxxxxxxx                                        
#   PSTRB                        integral         4     'h0x                                               
#   PWRITE                       integral         1     'h0X                                               
#   PENABLE                      integral         1     'h0X                                               
#   PREADY                       integral         1     'h0X                                               
#   PSLVERR                      integral         1     'h0X                                               
#   PSEL                         da(integral)     0     -                                                  
#   no_of_wait_cycles            integral         32    'd12                                               
#   wait_enable                  integral         1     1                                                  
#   begin_time                   time             64    650                                                
#   depth                        int              32    'd2                                                
#   parent sequence (name)       string           13    pready_seqs_0                                      
#   parent sequence (full name)  string           51    uvm_test_top.env_h.agent_hs_0.seqr_hs.pready_seqs_0
#   sequencer                    string           37    uvm_test_top.env_h.agent_hs_0.seqr_hs              
# ---------------------------------------------------------------------------------------------------------
# 
# UVM_INFO ../env/apb_sb.sv(127) @ 1250: uvm_test_top.env_h.sb_h [apb_sb] Data received from slave 0 monitor = 
# -------------------------------------------------------
# Name                 Type             Size  Value      
# -------------------------------------------------------
# trans_hs             apb_slave_trans  -     @1842      
#   PADDR              integral         8     'h21       
#   PWDATA             integral         32    'h1d200292 
#   PRDATA             integral         32    'h0xxxxxxxx
#   PSTRB              integral         4     'hf        
#   PWRITE             integral         1     'h1        
#   PENABLE            integral         1     'h1        
#   PREADY             integral         1     'h1        
#   PSLVERR            integral         1     'h0X       
#   PSEL               da(integral)     0     -          
#   no_of_wait_cycles  integral         32    'd0        
#   wait_enable        integral         1     'dX        
# -------------------------------------------------------
# 
# UVM_INFO ../master_agent/apb_master_seqs.sv(30) @ 1250: uvm_test_top.env_h.agent_hm.seqr_hm@@seqs_hm [apb_master_seqs] Transaction-4 sent from MASTER SEQS =
# --------------------------------------------------------------------------------------------------
# Name                           Type              Size  Value                                      
# --------------------------------------------------------------------------------------------------
# trans_hm                       apb_master_trans  -     @1859                                      
#   PWRITE                       integral          1     'h1                                        
#   PADDR                        integral          8     'h21                                       
#   PWDATA                       integral          32    'h1d200292                                 
#   PSTRB                        integral          4     'hf                                        
#   PENABLE                      integral          1     'h1                                        
#   PSEL                         da(integral)      4     -                                          
#     [0]                        integral          1     'h1                                        
#     [1]                        integral          1     'h0                                        
#     [2]                        integral          1     'h0                                        
#     [3]                        integral          1     'h0                                        
#   trans_size                   transfer_size_e   2     WORD                                       
#   PREADY                       integral          1     'h0X                                       
#   PRDATA                       integral          32    'h0xxxxxxxx                                
#   PSLVERR                      integral          1     'h0X                                       
#   begin_time                   time              64    950                                        
#   end_time                     time              64    1250                                       
#   depth                        int               32    'd2                                        
#   parent sequence (name)       string            7     seqs_hm                                    
#   parent sequence (full name)  string            43    uvm_test_top.env_h.agent_hm.seqr_hm.seqs_hm
#   sequencer                    string            35    uvm_test_top.env_h.agent_hm.seqr_hm        
#   Direction                    string            5     WRITE                                      
#   Trans Size                   string            4     WORD                                       
# --------------------------------------------------------------------------------------------------
# 
# 
# ---------- Master Transaction : 5 ----------
# 
# UVM_INFO ../test//slave_tc/apb_max_pready_seqs.sv(34) @ 1250: uvm_test_top.env_h.agent_hs_0.seqr_hs@@pready_seqs_0 [apb_max_pready_seqs] Transaction-4 sent from MASTER SEQS =
# ---------------------------------------------------------------------------------------------------------
# Name                           Type             Size  Value                                              
# ---------------------------------------------------------------------------------------------------------
# trans_hs                       apb_slave_trans  -     @1851                                              
#   PADDR                        integral         8     'h0xx                                              
#   PWDATA                       integral         32    'h0xxxxxxxx                                        
#   PRDATA                       integral         32    'h0xxxxxxxx                                        
#   PSTRB                        integral         4     'h0x                                               
#   PWRITE                       integral         1     'h0X                                               
#   PENABLE                      integral         1     'h0X                                               
#   PREADY                       integral         1     'h0X                                               
#   PSLVERR                      integral         1     'h0X                                               
#   PSEL                         da(integral)     0     -                                                  
#   no_of_wait_cycles            integral         32    'd12                                               
#   wait_enable                  integral         1     1                                                  
#   begin_time                   time             64    650                                                
#   end_time                     time             64    1250                                               
#   depth                        int              32    'd2                                                
#   parent sequence (name)       string           13    pready_seqs_0                                      
#   parent sequence (full name)  string           51    uvm_test_top.env_h.agent_hs_0.seqr_hs.pready_seqs_0
#   sequencer                    string           37    uvm_test_top.env_h.agent_hs_0.seqr_hs              
# ---------------------------------------------------------------------------------------------------------
# 
# 
# ---------- apb_max_pready_seqs transaction : 5 ----------
# 
# UVM_INFO ../slave_agent/apb_slave_drv.sv(58) @ 1250: uvm_test_top.env_h.agent_hs_0.drv_hs [apb_slave_drv] Transaction received at SLAVE-DRIVER =
# ---------------------------------------------------------------------------------------------------------
# Name                           Type             Size  Value                                              
# ---------------------------------------------------------------------------------------------------------
# trans_hs                       apb_slave_trans  -     @1876                                              
#   PADDR                        integral         8     'h0xx                                              
#   PWDATA                       integral         32    'h0xxxxxxxx                                        
#   PRDATA                       integral         32    'h0xxxxxxxx                                        
#   PSTRB                        integral         4     'h0x                                               
#   PWRITE                       integral         1     'h0X                                               
#   PENABLE                      integral         1     'h0X                                               
#   PREADY                       integral         1     'h0X                                               
#   PSLVERR                      integral         1     'h0X                                               
#   PSEL                         da(integral)     0     -                                                  
#   no_of_wait_cycles            integral         32    'd12                                               
#   wait_enable                  integral         1     1                                                  
#   begin_time                   time             64    1250                                               
#   depth                        int              32    'd2                                                
#   parent sequence (name)       string           13    pready_seqs_0                                      
#   parent sequence (full name)  string           51    uvm_test_top.env_h.agent_hs_0.seqr_hs.pready_seqs_0
#   sequencer                    string           37    uvm_test_top.env_h.agent_hs_0.seqr_hs              
# ---------------------------------------------------------------------------------------------------------
# 
# UVM_INFO ../master_agent/apb_master_drv.sv(151) @ 1250: uvm_test_top.env_h.agent_hm.drv_hm [apb_master_drv] [MASTER-TRANS-5] Data Received at MASTER-DRIVER =
# --------------------------------------------------------------------------------------------------
# Name                           Type              Size  Value                                      
# --------------------------------------------------------------------------------------------------
# trans_hm                       apb_master_trans  -     @1872                                      
