# vsim -vopt apb_top -c -do "run -all; exit" "+UVM_VERBOSITY=UVM_NONE" 
# Start time: 14:47:36 on Jun 05,2026
# ** Note: (vsim-3812) Design is being optimized...
# //  Questa Sim-64
# //  Version 10.7c win64 Aug 18 2018
# //
# //  Copyright 1991-2018 Mentor Graphics Corporation
# //  All Rights Reserved.
# //
# //  QuestaSim and its associated documentation contain trade
# //  secrets and commercial or financial information that are the property of
# //  Mentor Graphics Corporation and are privileged, confidential,
# //  and exempt from disclosure under the Freedom of Information Act,
# //  5 U.S.C. Section 552. Furthermore, this information
# //  is prohibited from disclosure under the Trade Secrets Act,
# //  18 U.S.C. Section 1905.
# //
# Loading sv_std.std
# Loading work.apb_inf(fast)
# Loading mtiUvm.uvm_pkg
# Loading work.apb_pkg(fast)
# Loading work.apb_top_sv_unit(fast)
# Loading work.apb_top(fast)
# Loading work.apb_pkg_sv_unit(fast)
# Loading work.apb_inf(fast)
# Loading mtiUvm.questa_uvm_pkg(fast)
# Loading C:/questasim64_10.7c/uvm-1.1d\win64\uvm_dpi.dll
# run -all
# ----------------------------------------------------------------
# UVM-1.1d
# (C) 2007-2013 Mentor Graphics Corporation
# (C) 2007-2013 Cadence Design Systems, Inc.
# (C) 2006-2013 Synopsys, Inc.
# (C) 2011-2013 Cypress Semiconductor Corp.
# ----------------------------------------------------------------
# 
#   ***********       IMPORTANT RELEASE NOTES         ************
# 
#   You are using a version of the UVM library that has been compiled
#   with `UVM_NO_DEPRECATED undefined.
#   See http://www.eda.org/svdb/view.php?id=3313 for more details.
# 
#   You are using a version of the UVM library that has been compiled
#   with `UVM_OBJECT_MUST_HAVE_CONSTRUCTOR undefined.
#   See http://www.eda.org/svdb/view.php?id=3770 for more details.
# 
#       (Specify +UVM_NO_RELNOTES to turn off this notice)
# 
# ------ Execution Done Build-Phase in Master Driver -------
# ------------------------------------------------------------------
# Name                       Type                        Size  Value
# ------------------------------------------------------------------
# uvm_test_top               apb_base_test               -     @474 
#   env_h                    apb_env                     -     @492 
#     agent_hm               apb_master_agent            -     @523 
#       drv_hm               apb_master_drv              -     @581 
#         rsp_port           uvm_analysis_port           -     @596 
#         seq_item_port      uvm_seq_item_pull_port      -     @588 
#       mon_hm               apb_master_mon              -     @566 
#         mas_mon_ap         uvm_analysis_port           -     @573 
#       seqr_hm              apb_master_seqr             -     @604 
#         rsp_export         uvm_analysis_export         -     @611 
#         seq_item_export    uvm_seq_item_pull_imp       -     @705 
#         arbitration_queue  array                       0     -    
#         lock_queue         array                       0     -    
#         num_last_reqs      integral                    32    'd1  
#         num_last_rsps      integral                    32    'd1  
#     agent_hs_0             apb_slave_agent             -     @537 
#       drv_hs               apb_slave_drv               -     @752 
#         rsp_port           uvm_analysis_port           -     @767 
#         seq_item_port      uvm_seq_item_pull_port      -     @759 
#       mon_hs               apb_slave_mon               -     @737 
#         slv_mon_ap         uvm_analysis_port           -     @744 
#       seqr_hs              apb_slave_seqr              -     @775 
#         rsp_export         uvm_analysis_export         -     @782 
#         seq_item_export    uvm_seq_item_pull_imp       -     @876 
#         arbitration_queue  array                       0     -    
#         lock_queue         array                       0     -    
#         num_last_reqs      integral                    32    'd1  
#         num_last_rsps      integral                    32    'd1  
#     agent_hs_1             apb_slave_agent             -     @548 
#       drv_hs               apb_slave_drv               -     @910 
#         rsp_port           uvm_analysis_port           -     @925 
#         seq_item_port      uvm_seq_item_pull_port      -     @917 
#       mon_hs               apb_slave_mon               -     @895 
#         slv_mon_ap         uvm_analysis_port           -     @902 
#       seqr_hs              apb_slave_seqr              -     @933 
#         rsp_export         uvm_analysis_export         -     @940 
#         seq_item_export    uvm_seq_item_pull_imp       -     @1034
#         arbitration_queue  array                       0     -    
#         lock_queue         array                       0     -    
#         num_last_reqs      integral                    32    'd1  
#         num_last_rsps      integral                    32    'd1  
#     agent_hs_2             apb_slave_agent             -     @556 
#       drv_hs               apb_slave_drv               -     @1068
#         rsp_port           uvm_analysis_port           -     @1083
#         seq_item_port      uvm_seq_item_pull_port      -     @1075
#       mon_hs               apb_slave_mon               -     @1053
#         slv_mon_ap         uvm_analysis_port           -     @1060
#       seqr_hs              apb_slave_seqr              -     @1091
#         rsp_export         uvm_analysis_export         -     @1098
#         seq_item_export    uvm_seq_item_pull_imp       -     @1192
#         arbitration_queue  array                       0     -    
#         lock_queue         array                       0     -    
#         num_last_reqs      integral                    32    'd1  
#         num_last_rsps      integral                    32    'd1  
#     sb_h                   apb_sb                      -     @530 
#       mas_mon_fifo_h       uvm_tlm_analysis_fifo #(T)  -     @1209
#         analysis_export    uvm_analysis_imp            -     @1248
#         get_ap             uvm_analysis_port           -     @1240
#         get_peek_export    uvm_get_peek_imp            -     @1224
#         put_ap             uvm_analysis_port           -     @1232
#         put_export         uvm_put_imp                 -     @1216
#       slv_mon_fifo_h_0     uvm_tlm_analysis_fifo #(T)  -     @1273
#         analysis_export    uvm_analysis_imp            -     @1312
#         get_ap             uvm_analysis_port           -     @1304
#         get_peek_export    uvm_get_peek_imp            -     @1288
#         put_ap             uvm_analysis_port           -     @1296
#         put_export         uvm_put_imp                 -     @1280
#       slv_mon_fifo_h_1     uvm_tlm_analysis_fifo #(T)  -     @1320
#         analysis_export    uvm_analysis_imp            -     @1359
#         get_ap             uvm_analysis_port           -     @1351
#         get_peek_export    uvm_get_peek_imp            -     @1335
#         put_ap             uvm_analysis_port           -     @1343
#         put_export         uvm_put_imp                 -     @1327
#       slv_mon_fifo_h_2     uvm_tlm_analysis_fifo #(T)  -     @1367
#         analysis_export    uvm_analysis_imp            -     @1406
#         get_ap             uvm_analysis_port           -     @1398
#         get_peek_export    uvm_get_peek_imp            -     @1382
#         put_ap             uvm_analysis_port           -     @1390
#         put_export         uvm_put_imp                 -     @1374
# ------------------------------------------------------------------
# 
# UVM_INFO ../slave_agent/apb_slave_config.sv(52) @ 0: reporter [apb_slave_config] Slave-0 | Range: 0x0–0x54 | is_active=UVM_ACTIVE | wait=0
# UVM_INFO ../slave_agent/apb_slave_config.sv(52) @ 0: reporter [apb_slave_config] Slave-1 | Range: 0x55–0xa9 | is_active=UVM_ACTIVE | wait=0
# UVM_INFO ../slave_agent/apb_slave_config.sv(52) @ 0: reporter [apb_slave_config] Slave-2 | Range: 0xaa–0xfe | is_active=UVM_ACTIVE | wait=0
# 
# ---------- Master Transaction : 1 ----------
# 
# UVM_INFO ../slave_agent/apb_slave_mon.sv(104) @ 130: uvm_test_top.env_h.agent_hs_0.mon_hs [apb_slave_mon] Slave-0 transaction sent to scoreboard = 
# ------------------------------------------------------
# Name                 Type             Size  Value     
# ------------------------------------------------------
# trans_hs             apb_slave_trans  -     @1542     
#   PADDR              integral         8     'h0       
#   PWDATA             integral         32    'heb203ca4
#   PRDATA             integral         32    'h0       
#   PSTRB              integral         4     'hf       
#   PWRITE             integral         1     'h1       
#   PENABLE            integral         1     'h1       
#   PREADY             integral         1     'h1       
#   PSLVERR            integral         1     'h0       
#   PSEL               da(integral)     0     -         
#   no_of_wait_cycles  integral         32    'd0       
#   wait_enable        integral         1     'd0       
# ------------------------------------------------------
# 
# UVM_INFO ../env/apb_sb.sv(91) @ 130: uvm_test_top.env_h.sb_h [apb_sb] Data received from slave 0 monitor = 
# ------------------------------------------------------
# Name                 Type             Size  Value     
# ------------------------------------------------------
# trans_hs             apb_slave_trans  -     @1542     
#   PADDR              integral         8     'h0       
#   PWDATA             integral         32    'heb203ca4
#   PRDATA             integral         32    'h0       
#   PSTRB              integral         4     'hf       
#   PWRITE             integral         1     'h1       
#   PENABLE            integral         1     'h1       
#   PREADY             integral         1     'h1       
#   PSLVERR            integral         1     'h0       
#   PSEL               da(integral)     0     -         
#   no_of_wait_cycles  integral         32    'd0       
#   wait_enable        integral         1     'd0       
# ------------------------------------------------------
# 
# 
# ---------- Master Transaction : 2 ----------
# 
# UVM_INFO ../slave_agent/apb_slave_mon.sv(104) @ 190: uvm_test_top.env_h.agent_hs_0.mon_hs [apb_slave_mon] Slave-0 transaction sent to scoreboard = 
# ------------------------------------------------------
# Name                 Type             Size  Value     
# ------------------------------------------------------
# trans_hs             apb_slave_trans  -     @1554     
#   PADDR              integral         8     'h0       
#   PWDATA             integral         32    'h96074a7d
#   PRDATA             integral         32    'h0       
#   PSTRB              integral         4     'hf       
#   PWRITE             integral         1     'h1       
#   PENABLE            integral         1     'h1       
#   PREADY             integral         1     'h1       
#   PSLVERR            integral         1     'h0       
#   PSEL               da(integral)     0     -         
#   no_of_wait_cycles  integral         32    'd0       
#   wait_enable        integral         1     'd0       
# ------------------------------------------------------
# 
# 
# ---------- Master Transaction : 3 ----------
# 
# UVM_INFO ../slave_agent/apb_slave_mon.sv(104) @ 250: uvm_test_top.env_h.agent_hs_0.mon_hs [apb_slave_mon] Slave-0 transaction sent to scoreboard = 
# ------------------------------------------------------
# Name                 Type             Size  Value     
# ------------------------------------------------------
# trans_hs             apb_slave_trans  -     @1568     
#   PADDR              integral         8     'h0       
#   PWDATA             integral         32    'h5cfbd0a8
#   PRDATA             integral         32    'h0       
#   PSTRB              integral         4     'h3       
#   PWRITE             integral         1     'h1       
#   PENABLE            integral         1     'h1       
#   PREADY             integral         1     'h1       
#   PSLVERR            integral         1     'h0       
#   PSEL               da(integral)     0     -         
#   no_of_wait_cycles  integral         32    'd0       
#   wait_enable        integral         1     'd0       
# ------------------------------------------------------
# 
# 
# ---------- Master Transaction : 4 ----------
# 
# UVM_INFO ../slave_agent/apb_slave_mon.sv(104) @ 330: uvm_test_top.env_h.agent_hs_0.mon_hs [apb_slave_mon] Slave-0 transaction sent to scoreboard = 
# -------------------------------------------------
# Name                 Type             Size  Value
# -------------------------------------------------
# trans_hs             apb_slave_trans  -     @1580
#   PADDR              integral         8     'h0  
#   PWDATA             integral         32    'h0  
#   PRDATA             integral         32    'h0  
#   PSTRB              integral         4     'h0  
#   PWRITE             integral         1     'h0  
#   PENABLE            integral         1     'h1  
#   PREADY             integral         1     'h1  
#   PSLVERR            integral         1     'h0  
#   PSEL               da(integral)     0     -    
#   no_of_wait_cycles  integral         32    'd0  
#   wait_enable        integral         1     'd0  
# -------------------------------------------------
# 
# UVM_INFO ../env/apb_sb.sv(73) @ 330: uvm_test_top.env_h.sb_h [apb_sb] Data received from master monitor = 
# --------------------------------------------
# Name          Type              Size  Value 
# --------------------------------------------
# trans_hm      apb_master_trans  -     @1426 
#   PWRITE      integral          1     'h0   
#   PADDR       integral          8     'h0   
#   PWDATA      integral          32    'h0   
#   PSTRB       integral          4     'h0   
#   PENABLE     integral          1     'h1   
#   PSEL        da(integral)      0     -     
#   trans_size  transfer_size_e   2     BYTE  
#   PREADY      integral          1     'h1   
#   PRDATA      integral          32    'hd0a8
#   PSLVERR     integral          1     'h0   
#   Direction   string            4     READ  
#   Trans Size  string            4     BYTE  
# --------------------------------------------
# 
# UVM_INFO ../env/apb_sb.sv(83) @ 330: uvm_test_top.env_h.sb_h [apb_sb] act_data_q = '{53416}
# UVM_INFO ../env/apb_sb.sv(91) @ 330: uvm_test_top.env_h.sb_h [apb_sb] Data received from slave 0 monitor = 
# ------------------------------------------------------
# Name                 Type             Size  Value     
# ------------------------------------------------------
# trans_hs             apb_slave_trans  -     @1554     
#   PADDR              integral         8     'h0       
#   PWDATA             integral         32    'h96074a7d
#   PRDATA             integral         32    'h0       
#   PSTRB              integral         4     'hf       
#   PWRITE             integral         1     'h1       
#   PENABLE            integral         1     'h1       
#   PREADY             integral         1     'h1       
#   PSLVERR            integral         1     'h0       
#   PSEL               da(integral)     0     -         
#   no_of_wait_cycles  integral         32    'd0       
#   wait_enable        integral         1     'd0       
# ------------------------------------------------------
# 
# 
# ---------- Master Transaction : 5 ----------
# 
# UVM_INFO ../slave_agent/apb_slave_mon.sv(104) @ 410: uvm_test_top.env_h.agent_hs_0.mon_hs [apb_slave_mon] Slave-0 transaction sent to scoreboard = 
# ------------------------------------------------------
# Name                 Type             Size  Value     
# ------------------------------------------------------
# trans_hs             apb_slave_trans  -     @1592     
#   PADDR              integral         8     'h0       
#   PWDATA             integral         32    'h695a88ea
#   PRDATA             integral         32    'h0       
#   PSTRB              integral         4     'hf       
#   PWRITE             integral         1     'h1       
#   PENABLE            integral         1     'h1       
#   PREADY             integral         1     'h1       
#   PSLVERR            integral         1     'h0       
#   PSEL               da(integral)     0     -         
#   no_of_wait_cycles  integral         32    'd0       
#   wait_enable        integral         1     'd0       
# ------------------------------------------------------
# 
# 
# ---------- Master Transaction : 6 ----------
# 
# UVM_INFO ../slave_agent/apb_slave_mon.sv(104) @ 470: uvm_test_top.env_h.agent_hs_0.mon_hs [apb_slave_mon] Slave-0 transaction sent to scoreboard = 
# ------------------------------------------------------
# Name                 Type             Size  Value     
# ------------------------------------------------------
# trans_hs             apb_slave_trans  -     @1604     
#   PADDR              integral         8     'h0       
#   PWDATA             integral         32    'hf54ad4a2
#   PRDATA             integral         32    'h0       
#   PSTRB              integral         4     'hf       
#   PWRITE             integral         1     'h1       
#   PENABLE            integral         1     'h1       
#   PREADY             integral         1     'h1       
#   PSLVERR            integral         1     'h0       
#   PSEL               da(integral)     0     -         
#   no_of_wait_cycles  integral         32    'd0       
#   wait_enable        integral         1     'd0       
# ------------------------------------------------------
# 
# 
# ---------- Master Transaction : 7 ----------
# 
# UVM_INFO ../slave_agent/apb_slave_mon.sv(104) @ 610: uvm_test_top.env_h.agent_hs_0.mon_hs [apb_slave_mon] Slave-0 transaction sent to scoreboard = 
# -------------------------------------------------
# Name                 Type             Size  Value
# -------------------------------------------------
# trans_hs             apb_slave_trans  -     @1616
#   PADDR              integral         8     'h0  
#   PWDATA             integral         32    'h0  
#   PRDATA             integral         32    'h0  
#   PSTRB              integral         4     'h0  
#   PWRITE             integral         1     'h0  
#   PENABLE            integral         1     'h1  
#   PREADY             integral         1     'h1  
#   PSLVERR            integral         1     'h0  
#   PSEL               da(integral)     0     -    
#   no_of_wait_cycles  integral         32    'd0  
#   wait_enable        integral         1     'd0  
# -------------------------------------------------
# 
# UVM_INFO ../env/apb_sb.sv(73) @ 610: uvm_test_top.env_h.sb_h [apb_sb] Data received from master monitor = 
# ------------------------------------------------
# Name          Type              Size  Value     
# ------------------------------------------------
# trans_hm      apb_master_trans  -     @1426     
#   PWRITE      integral          1     'h0       
#   PADDR       integral          8     'h0       
#   PWDATA      integral          32    'h0       
#   PSTRB       integral          4     'h0       
#   PENABLE     integral          1     'h1       
#   PSEL        da(integral)      0     -         
#   trans_size  transfer_size_e   2     BYTE      
#   PREADY      integral          1     'h1       
#   PRDATA      integral          32    'hf54ad4a2
#   PSLVERR     integral          1     'h0       
#   Direction   string            4     READ      
#   Trans Size  string            4     BYTE      
# ------------------------------------------------
# 
# UVM_INFO ../env/apb_sb.sv(83) @ 610: uvm_test_top.env_h.sb_h [apb_sb] act_data_q = '{53416, 4115322018}
# UVM_INFO ../env/apb_sb.sv(91) @ 610: uvm_test_top.env_h.sb_h [apb_sb] Data received from slave 0 monitor = 
# ------------------------------------------------------
# Name                 Type             Size  Value     
# ------------------------------------------------------
# trans_hs             apb_slave_trans  -     @1568     
#   PADDR              integral         8     'h0       
#   PWDATA             integral         32    'h5cfbd0a8
#   PRDATA             integral         32    'h0       
#   PSTRB              integral         4     'h3       
#   PWRITE             integral         1     'h1       
#   PENABLE            integral         1     'h1       
#   PREADY             integral         1     'h1       
#   PSLVERR            integral         1     'h0       
#   PSEL               da(integral)     0     -         
#   no_of_wait_cycles  integral         32    'd0       
#   wait_enable        integral         1     'd0       
# ------------------------------------------------------
# 
# 
# ---------- Master Transaction : 8 ----------
# 
# UVM_INFO ../slave_agent/apb_slave_mon.sv(104) @ 710: uvm_test_top.env_h.agent_hs_0.mon_hs [apb_slave_mon] Slave-0 transaction sent to scoreboard = 
# -------------------------------------------------
# Name                 Type             Size  Value
# -------------------------------------------------
# trans_hs             apb_slave_trans  -     @1628
#   PADDR              integral         8     'h0  
#   PWDATA             integral         32    'h0  
#   PRDATA             integral         32    'h0  
#   PSTRB              integral         4     'h0  
#   PWRITE             integral         1     'h0  
#   PENABLE            integral         1     'h1  
#   PREADY             integral         1     'h1  
#   PSLVERR            integral         1     'h0  
#   PSEL               da(integral)     0     -    
#   no_of_wait_cycles  integral         32    'd0  
#   wait_enable        integral         1     'd0  
# -------------------------------------------------
# 
# UVM_INFO ../env/apb_sb.sv(73) @ 710: uvm_test_top.env_h.sb_h [apb_sb] Data received from master monitor = 
# ------------------------------------------------
# Name          Type              Size  Value     
# ------------------------------------------------
# trans_hm      apb_master_trans  -     @1426     
#   PWRITE      integral          1     'h0       
#   PADDR       integral          8     'h0       
#   PWDATA      integral          32    'h0       
#   PSTRB       integral          4     'h0       
#   PENABLE     integral          1     'h1       
#   PSEL        da(integral)      0     -         
#   trans_size  transfer_size_e   2     BYTE      
#   PREADY      integral          1     'h1       
#   PRDATA      integral          32    'hf54ad4a2
#   PSLVERR     integral          1     'h0       
#   Direction   string            4     READ      
#   Trans Size  string            4     BYTE      
# ------------------------------------------------
# 
# UVM_INFO ../env/apb_sb.sv(83) @ 710: uvm_test_top.env_h.sb_h [apb_sb] act_data_q = '{53416, 4115322018, 4115322018}
# UVM_INFO ../env/apb_sb.sv(91) @ 710: uvm_test_top.env_h.sb_h [apb_sb] Data received from slave 0 monitor = 
# -------------------------------------------------
# Name                 Type             Size  Value
# -------------------------------------------------
# trans_hs             apb_slave_trans  -     @1580
#   PADDR              integral         8     'h0  
#   PWDATA             integral         32    'h0  
#   PRDATA             integral         32    'h0  
#   PSTRB              integral         4     'h0  
#   PWRITE             integral         1     'h0  
#   PENABLE            integral         1     'h1  
#   PREADY             integral         1     'h1  
#   PSLVERR            integral         1     'h0  
#   PSEL               da(integral)     0     -    
#   no_of_wait_cycles  integral         32    'd0  
#   wait_enable        integral         1     'd0  
# -------------------------------------------------
# 
# UVM_INFO ../env/apb_sb.sv(112) @ 710: uvm_test_top.env_h.sb_h [apb_sb] exp_data_q = '{53416}
# 
# ---------- Master Transaction : 9 ----------
# 
# UVM_INFO ../slave_agent/apb_slave_mon.sv(104) @ 790: uvm_test_top.env_h.agent_hs_0.mon_hs [apb_slave_mon] Slave-0 transaction sent to scoreboard = 
# ------------------------------------------------------
# Name                 Type             Size  Value     
# ------------------------------------------------------
# trans_hs             apb_slave_trans  -     @1640     
#   PADDR              integral         8     'h0       
#   PWDATA             integral         32    'h8015efa5
#   PRDATA             integral         32    'h0       
#   PSTRB              integral         4     'hf       
#   PWRITE             integral         1     'h1       
#   PENABLE            integral         1     'h1       
#   PREADY             integral         1     'h1       
#   PSLVERR            integral         1     'h0       
#   PSEL               da(integral)     0     -         
#   no_of_wait_cycles  integral         32    'd0       
#   wait_enable        integral         1     'd0       
# ------------------------------------------------------
# 
# 
# ---------- Master Transaction : 10 ----------
# 
# UVM_INFO ../slave_agent/apb_slave_mon.sv(104) @ 850: uvm_test_top.env_h.agent_hs_0.mon_hs [apb_slave_mon] Slave-0 transaction sent to scoreboard = 
# ------------------------------------------------------
# Name                 Type             Size  Value     
# ------------------------------------------------------
# trans_hs             apb_slave_trans  -     @1652     
#   PADDR              integral         8     'h0       
#   PWDATA             integral         32    'heb617489
#   PRDATA             integral         32    'h0       
#   PSTRB              integral         4     'hf       
#   PWRITE             integral         1     'h1       
#   PENABLE            integral         1     'h1       
#   PREADY             integral         1     'h1       
#   PSLVERR            integral         1     'h0       
#   PSEL               da(integral)     0     -         
#   no_of_wait_cycles  integral         32    'd0       
#   wait_enable        integral         1     'd0       
# ------------------------------------------------------
# 
# 
# ---------------------------------------
# 	    SIMULATION REPORT 		
# ---------------------------------------
# Total Transactions = 0
# ---------------------------------------
# WRITE Transactions : 
# 	 TOTAL		= 0 
# 	 SUCCEED	= 0 
# 	 FAILED		= 0
# ---------------------------------------
# READ  Transactions : 
# 	 TOTAL		= 0 
# 	 SUCCEED	= 0 
# 	 FAILED		= 0
# 
# ---------------------------------------
# 	    COVERAGE REPORT 		
# ---------------------------------------
# ---------------------------------------
# UVM_INFO ../slave_agent/apb_slave_mon.sv(113) @ 850: uvm_test_top.env_h.agent_hs_0.mon_hs [apb_slave_mon] mem_model[0] = 0xeb617489
# UVM_INFO ../env/apb_sb.sv(134) @ 850: uvm_test_top.env_h.sb_h [apb_sb] mem_model[0] = 0x0000d0a8
# 
# --- UVM Report Summary ---
# 
# ** Report counts by severity
# UVM_INFO :   26
# UVM_WARNING :    0
# UVM_ERROR :    0
# UVM_FATAL :    0
# ** Report counts by id
# [apb_sb]    12
# [apb_slave_config]     3
# [apb_slave_mon]    11
# ** Note: $finish    : C:/questasim64_10.7c/win64/../verilog_src/uvm-1.1d/src/base/uvm_root.svh(430)
#    Time: 850 ns  Iteration: 64  Instance: /apb_top
# End time: 14:47:38 on Jun 05,2026, Elapsed time: 0:00:02
# Errors: 0, Warnings: 0
