# vsim -vopt apb_top -c -do "run -all; exit" "+UVM_VERBOSITY=UVM_NONE" 
# Start time: 18:43:25 on Jun 04,2026
# ** Note: (vsim-8009) Loading existing optimized design _opt1
# //  Questa Sim-64
# //  Version 10.7c win64 Aug 18 2018
# //
# //  Copyright 1991-2018 Mentor Graphics Corporation
# //  All Rights Reserved.
# //
# //  QuestaSim and its associated documentation contain trade
# //  secrets and commercial or financial information that are the property of
# //  Mentor Graphics Corporation and are privileged, confidential,
# //  and exempt from disclosure under the Freedom of Information Act,
# //  5 U.S.C. Section 552. Furthermore, this information
# //  is prohibited from disclosure under the Trade Secrets Act,
# //  18 U.S.C. Section 1905.
# //
# Loading sv_std.std
# Loading work.apb_inf(fast)
# Loading mtiUvm.uvm_pkg
# Loading work.apb_pkg(fast)
# Loading work.apb_top_sv_unit(fast)
# Loading work.apb_top(fast)
# Loading work.apb_pkg_sv_unit(fast)
# Loading work.apb_inf(fast)
# Loading mtiUvm.questa_uvm_pkg(fast)
# Loading C:/questasim64_10.7c/uvm-1.1d\win64\uvm_dpi.dll
# run -all
# ----------------------------------------------------------------
# UVM-1.1d
# (C) 2007-2013 Mentor Graphics Corporation
# (C) 2007-2013 Cadence Design Systems, Inc.
# (C) 2006-2013 Synopsys, Inc.
# (C) 2011-2013 Cypress Semiconductor Corp.
# ----------------------------------------------------------------
# 
#   ***********       IMPORTANT RELEASE NOTES         ************
# 
#   You are using a version of the UVM library that has been compiled
#   with `UVM_NO_DEPRECATED undefined.
#   See http://www.eda.org/svdb/view.php?id=3313 for more details.
# 
#   You are using a version of the UVM library that has been compiled
#   with `UVM_OBJECT_MUST_HAVE_CONSTRUCTOR undefined.
#   See http://www.eda.org/svdb/view.php?id=3770 for more details.
# 
#       (Specify +UVM_NO_RELNOTES to turn off this notice)
# 
# ------ Execution Done Build-Phase in Master Driver -------
# ------------------------------------------------------------------
# Name                       Type                        Size  Value
# ------------------------------------------------------------------
# uvm_test_top               apb_base_test               -     @474 
#   env_h                    apb_env                     -     @492 
#     agent_hm               apb_master_agent            -     @523 
#       drv_hm               apb_master_drv              -     @581 
#         rsp_port           uvm_analysis_port           -     @596 
#         seq_item_port      uvm_seq_item_pull_port      -     @588 
#       mon_hm               apb_master_mon              -     @566 
#         mas_mon_ap         uvm_analysis_port           -     @573 
#       seqr_hm              apb_master_seqr             -     @604 
#         rsp_export         uvm_analysis_export         -     @611 
#         seq_item_export    uvm_seq_item_pull_imp       -     @705 
#         arbitration_queue  array                       0     -    
#         lock_queue         array                       0     -    
#         num_last_reqs      integral                    32    'd1  
#         num_last_rsps      integral                    32    'd1  
#     agent_hs_0             apb_slave_agent             -     @537 
#       drv_hs               apb_slave_drv               -     @752 
#         rsp_port           uvm_analysis_port           -     @767 
#         seq_item_port      uvm_seq_item_pull_port      -     @759 
#       mon_hs               apb_slave_mon               -     @737 
#         slv_mon_ap         uvm_analysis_port           -     @744 
#       seqr_hs              apb_slave_seqr              -     @775 
#         rsp_export         uvm_analysis_export         -     @782 
#         seq_item_export    uvm_seq_item_pull_imp       -     @876 
#         arbitration_queue  array                       0     -    
#         lock_queue         array                       0     -    
#         num_last_reqs      integral                    32    'd1  
#         num_last_rsps      integral                    32    'd1  
#     agent_hs_1             apb_slave_agent             -     @548 
#       drv_hs               apb_slave_drv               -     @910 
#         rsp_port           uvm_analysis_port           -     @925 
#         seq_item_port      uvm_seq_item_pull_port      -     @917 
#       mon_hs               apb_slave_mon               -     @895 
#         slv_mon_ap         uvm_analysis_port           -     @902 
#       seqr_hs              apb_slave_seqr              -     @933 
#         rsp_export         uvm_analysis_export         -     @940 
#         seq_item_export    uvm_seq_item_pull_imp       -     @1034
#         arbitration_queue  array                       0     -    
#         lock_queue         array                       0     -    
#         num_last_reqs      integral                    32    'd1  
#         num_last_rsps      integral                    32    'd1  
#     agent_hs_2             apb_slave_agent             -     @556 
#       drv_hs               apb_slave_drv               -     @1068
#         rsp_port           uvm_analysis_port           -     @1083
#         seq_item_port      uvm_seq_item_pull_port      -     @1075
#       mon_hs               apb_slave_mon               -     @1053
#         slv_mon_ap         uvm_analysis_port           -     @1060
#       seqr_hs              apb_slave_seqr              -     @1091
#         rsp_export         uvm_analysis_export         -     @1098
#         seq_item_export    uvm_seq_item_pull_imp       -     @1192
#         arbitration_queue  array                       0     -    
#         lock_queue         array                       0     -    
#         num_last_reqs      integral                    32    'd1  
#         num_last_rsps      integral                    32    'd1  
#     sb_h                   apb_sb                      -     @530 
#       mas_mon_fifo_h       uvm_tlm_analysis_fifo #(T)  -     @1209
#         analysis_export    uvm_analysis_imp            -     @1248
#         get_ap             uvm_analysis_port           -     @1240
#         get_peek_export    uvm_get_peek_imp            -     @1224
#         put_ap             uvm_analysis_port           -     @1232
#         put_export         uvm_put_imp                 -     @1216
#       slv_mon_fifo_h_0     uvm_tlm_analysis_fifo #(T)  -     @1273
#         analysis_export    uvm_analysis_imp            -     @1312
#         get_ap             uvm_analysis_port           -     @1304
#         get_peek_export    uvm_get_peek_imp            -     @1288
#         put_ap             uvm_analysis_port           -     @1296
#         put_export         uvm_put_imp                 -     @1280
#       slv_mon_fifo_h_1     uvm_tlm_analysis_fifo #(T)  -     @1320
#         analysis_export    uvm_analysis_imp            -     @1359
#         get_ap             uvm_analysis_port           -     @1351
#         get_peek_export    uvm_get_peek_imp            -     @1335
#         put_ap             uvm_analysis_port           -     @1343
#         put_export         uvm_put_imp                 -     @1327
#       slv_mon_fifo_h_2     uvm_tlm_analysis_fifo #(T)  -     @1367
#         analysis_export    uvm_analysis_imp            -     @1406
#         get_ap             uvm_analysis_port           -     @1398
#         get_peek_export    uvm_get_peek_imp            -     @1382
#         put_ap             uvm_analysis_port           -     @1390
#         put_export         uvm_put_imp                 -     @1374
# ------------------------------------------------------------------
# 
# UVM_INFO ../slave_agent/apb_slave_config.sv(52) @ 0: reporter [apb_slave_config] Slave-0 | Range: 0x0–0x54 | is_active=UVM_ACTIVE | wait=0
# UVM_INFO ../slave_agent/apb_slave_config.sv(52) @ 0: reporter [apb_slave_config] Slave-1 | Range: 0x55–0xa9 | is_active=UVM_ACTIVE | wait=0
# UVM_INFO ../slave_agent/apb_slave_config.sv(52) @ 0: reporter [apb_slave_config] Slave-2 | Range: 0xaa–0xfe | is_active=UVM_ACTIVE | wait=0
# 
# ---------- Master Transaction : 1 ----------
# 
# UVM_INFO ../env/apb_sb.sv(72) @ 91: uvm_test_top.env_h.sb_h [apb_sb] Data received from master monitor = 
# -------------------------------------------
# Name          Type              Size  Value
# -------------------------------------------
# trans_hm      apb_master_trans  -     @1426
#   PWRITE      integral          1     'h0  
#   PADDR       integral          8     'h0  
#   PWDATA      integral          32    'h0  
#   PSTRB       integral          4     'h0  
#   PENABLE     integral          1     'h1  
#   PSEL        da(integral)      0     -    
#   trans_size  transfer_size_e   2     BYTE 
#   PREADY      integral          1     'h1  
#   PRDATA      integral          32    'h0  
#   PSLVERR     integral          1     'h0  
#   Direction   string            4     READ 
#   Trans Size  string            4     BYTE 
# -------------------------------------------
# 
# UVM_INFO ../slave_agent/apb_slave_mon.sv(107) @ 110: uvm_test_top.env_h.agent_hs_2.mon_hs [apb_slave_mon] Slave-2 transaction sent to scoreboard
# 
# ---------- Master Transaction : 2 ----------
# 
# UVM_INFO ../env/apb_sb.sv(77) @ 110: uvm_test_top.env_h.sb_h [apb_sb] Data received from slave monitor = 
# -------------------------------------------
# Name          Type              Size  Value
# -------------------------------------------
# trans_hm      apb_master_trans  -     @1256
#   PWRITE      integral          1     'h0  
#   PADDR       integral          8     'h0  
#   PWDATA      integral          32    'h0  
#   PSTRB       integral          4     'h0  
#   PENABLE     integral          1     'h0  
#   PSEL        da(integral)      0     -    
#   trans_size  transfer_size_e   2     BYTE 
#   PREADY      integral          1     'h0  
#   PRDATA      integral          32    'h0  
#   PSLVERR     integral          1     'h0  
#   Direction   string            4     READ 
#   Trans Size  string            4     BYTE 
# -------------------------------------------
# 
# UVM_INFO ../env/apb_sb.sv(72) @ 171: uvm_test_top.env_h.sb_h [apb_sb] Data received from master monitor = 
# ------------------------------------------------
# Name          Type              Size  Value     
# ------------------------------------------------
# trans_hm      apb_master_trans  -     @1426     
#   PWRITE      integral          1     'h1       
#   PADDR       integral          8     'h2d      
#   PWDATA      integral          32    'h96074a7d
#   PSTRB       integral          4     'h0       
#   PENABLE     integral          1     'h1       
#   PSEL        da(integral)      0     -         
#   trans_size  transfer_size_e   2     BYTE      
#   PREADY      integral          1     'h1       
#   PRDATA      integral          32    'h0       
#   PSLVERR     integral          1     'h0       
#   Direction   string            5     WRITE     
#   Trans Size  string            4     BYTE      
# ------------------------------------------------
# 
# UVM_INFO ../slave_agent/apb_slave_mon.sv(107) @ 190: uvm_test_top.env_h.agent_hs_0.mon_hs [apb_slave_mon] Slave-0 transaction sent to scoreboard
# 
# ---------- Master Transaction : 3 ----------
# 
# UVM_INFO ../env/apb_sb.sv(77) @ 190: uvm_test_top.env_h.sb_h [apb_sb] Data received from slave monitor = 
# -------------------------------------------
# Name          Type              Size  Value
# -------------------------------------------
# trans_hm      apb_master_trans  -     @1256
#   PWRITE      integral          1     'h0  
#   PADDR       integral          8     'h0  
#   PWDATA      integral          32    'h0  
#   PSTRB       integral          4     'h0  
#   PENABLE     integral          1     'h0  
#   PSEL        da(integral)      0     -    
#   trans_size  transfer_size_e   2     BYTE 
#   PREADY      integral          1     'h0  
#   PRDATA      integral          32    'h0  
#   PSLVERR     integral          1     'h0  
#   Direction   string            4     READ 
#   Trans Size  string            4     BYTE 
# -------------------------------------------
# 
# UVM_INFO ../env/apb_sb.sv(72) @ 231: uvm_test_top.env_h.sb_h [apb_sb] Data received from master monitor = 
# ------------------------------------------------
# Name          Type              Size  Value     
# ------------------------------------------------
# trans_hm      apb_master_trans  -     @1426     
#   PWRITE      integral          1     'h1       
#   PADDR       integral          8     'h70      
#   PWDATA      integral          32    'h5cfbd0a8
#   PSTRB       integral          4     'h0       
#   PENABLE     integral          1     'h1       
#   PSEL        da(integral)      0     -         
#   trans_size  transfer_size_e   2     BYTE      
#   PREADY      integral          1     'h1       
#   PRDATA      integral          32    'h0       
#   PSLVERR     integral          1     'h0       
#   Direction   string            5     WRITE     
#   Trans Size  string            4     BYTE      
# ------------------------------------------------
# 
# UVM_INFO ../slave_agent/apb_slave_mon.sv(107) @ 250: uvm_test_top.env_h.agent_hs_1.mon_hs [apb_slave_mon] Slave-1 transaction sent to scoreboard
# 
# ---------- Master Transaction : 4 ----------
# 
# UVM_INFO ../env/apb_sb.sv(77) @ 250: uvm_test_top.env_h.sb_h [apb_sb] Data received from slave monitor = 
# -------------------------------------------
# Name          Type              Size  Value
# -------------------------------------------
# trans_hm      apb_master_trans  -     @1256
#   PWRITE      integral          1     'h0  
#   PADDR       integral          8     'h0  
#   PWDATA      integral          32    'h0  
#   PSTRB       integral          4     'h0  
#   PENABLE     integral          1     'h0  
#   PSEL        da(integral)      0     -    
#   trans_size  transfer_size_e   2     BYTE 
#   PREADY      integral          1     'h0  
#   PRDATA      integral          32    'h0  
#   PSLVERR     integral          1     'h0  
#   Direction   string            4     READ 
#   Trans Size  string            4     BYTE 
# -------------------------------------------
# 
# UVM_INFO ../env/apb_sb.sv(72) @ 291: uvm_test_top.env_h.sb_h [apb_sb] Data received from master monitor = 
# -------------------------------------------
# Name          Type              Size  Value
# -------------------------------------------
# trans_hm      apb_master_trans  -     @1426
#   PWRITE      integral          1     'h0  
#   PADDR       integral          8     'h21 
#   PWDATA      integral          32    'h0  
#   PSTRB       integral          4     'h0  
#   PENABLE     integral          1     'h1  
#   PSEL        da(integral)      0     -    
#   trans_size  transfer_size_e   2     BYTE 
#   PREADY      integral          1     'h1  
#   PRDATA      integral          32    'h0  
#   PSLVERR     integral          1     'h0  
#   Direction   string            4     READ 
#   Trans Size  string            4     BYTE 
# -------------------------------------------
# 
# UVM_INFO ../slave_agent/apb_slave_mon.sv(107) @ 310: uvm_test_top.env_h.agent_hs_0.mon_hs [apb_slave_mon] Slave-0 transaction sent to scoreboard
# 
# ---------- Master Transaction : 5 ----------
# 
# UVM_INFO ../env/apb_sb.sv(77) @ 310: uvm_test_top.env_h.sb_h [apb_sb] Data received from slave monitor = 
# -------------------------------------------
# Name          Type              Size  Value
# -------------------------------------------
# trans_hm      apb_master_trans  -     @1256
#   PWRITE      integral          1     'h0  
#   PADDR       integral          8     'h0  
#   PWDATA      integral          32    'h0  
#   PSTRB       integral          4     'h0  
#   PENABLE     integral          1     'h0  
#   PSEL        da(integral)      0     -    
#   trans_size  transfer_size_e   2     BYTE 
#   PREADY      integral          1     'h0  
#   PRDATA      integral          32    'h0  
#   PSLVERR     integral          1     'h0  
#   Direction   string            4     READ 
#   Trans Size  string            4     BYTE 
# -------------------------------------------
# 
# UVM_INFO ../env/apb_sb.sv(72) @ 351: uvm_test_top.env_h.sb_h [apb_sb] Data received from master monitor = 
# ------------------------------------------------
# Name          Type              Size  Value     
# ------------------------------------------------
# trans_hm      apb_master_trans  -     @1426     
#   PWRITE      integral          1     'h1       
#   PADDR       integral          8     'ha4      
#   PWDATA      integral          32    'h695a88ea
#   PSTRB       integral          4     'h0       
#   PENABLE     integral          1     'h1       
#   PSEL        da(integral)      0     -         
#   trans_size  transfer_size_e   2     BYTE      
#   PREADY      integral          1     'h1       
#   PRDATA      integral          32    'h0       
#   PSLVERR     integral          1     'h0       
#   Direction   string            5     WRITE     
#   Trans Size  string            4     BYTE      
# ------------------------------------------------
# 
# UVM_INFO ../slave_agent/apb_slave_mon.sv(107) @ 370: uvm_test_top.env_h.agent_hs_1.mon_hs [apb_slave_mon] Slave-1 transaction sent to scoreboard
# UVM_INFO ../env/apb_sb.sv(77) @ 370: uvm_test_top.env_h.sb_h [apb_sb] Data received from slave monitor = 
# -------------------------------------------
# Name          Type              Size  Value
# -------------------------------------------
# trans_hm      apb_master_trans  -     @1256
#   PWRITE      integral          1     'h0  
#   PADDR       integral          8     'h0  
#   PWDATA      integral          32    'h0  
#   PSTRB       integral          4     'h0  
#   PENABLE     integral          1     'h0  
#   PSEL        da(integral)      0     -    
#   trans_size  transfer_size_e   2     BYTE 
#   PREADY      integral          1     'h0  
#   PRDATA      integral          32    'h0  
#   PSLVERR     integral          1     'h0  
#   Direction   string            4     READ 
#   Trans Size  string            4     BYTE 
# -------------------------------------------
# 
# UVM_INFO ../slave_agent/apb_slave_mon.sv(121) @ 370: uvm_test_top.env_h.agent_hs_0.mon_hs [apb_slave_mon] mem_model[0x2d] 	= 0x96074a7d
# UVM_INFO ../slave_agent/apb_slave_mon.sv(121) @ 370: uvm_test_top.env_h.agent_hs_1.mon_hs [apb_slave_mon] mem_model[0x70] 	= 0xd0a8
# UVM_INFO ../slave_agent/apb_slave_mon.sv(121) @ 370: uvm_test_top.env_h.agent_hs_1.mon_hs [apb_slave_mon] mem_model[0xa4] 	= 0x695a88ea
# UVM_INFO ../slave_agent/apb_slave_mon.sv(121) @ 370: uvm_test_top.env_h.agent_hs_2.mon_hs [apb_slave_mon] mem_model[0xc1] 	= 0xeb203ca4
# 
# ---------------------------------------
# 	    SIMULATION REPORT 		
# ---------------------------------------
# Total Transactions = 0
# ---------------------------------------
# WRITE Transactions : 
# 	 TOTAL		= 0 
# 	 SUCCEED	= 0 
# 	 FAILED		= 0
# ---------------------------------------
# READ  Transactions : 
# 	 TOTAL		= 0 
# 	 SUCCEED	= 0 
# 	 FAILED		= 0
# 
# ---------------------------------------
# 	    COVERAGE REPORT 		
# ---------------------------------------
# ---------------------------------------
# 
# --- UVM Report Summary ---
# 
# ** Report counts by severity
# UVM_INFO :   22
# UVM_WARNING :    0
# UVM_ERROR :    0
# UVM_FATAL :    0
# ** Report counts by id
# [apb_sb]    10
# [apb_slave_config]     3
# [apb_slave_mon]     9
# ** Note: $finish    : C:/questasim64_10.7c/win64/../verilog_src/uvm-1.1d/src/base/uvm_root.svh(430)
#    Time: 370 ns  Iteration: 64  Instance: /apb_top
# End time: 18:43:26 on Jun 04,2026, Elapsed time: 0:00:01
# Errors: 0, Warnings: 0
