# vsim -vopt apb_top -c -sv_seed random -coverage -do "coverage save -onexit results/tc1/tc1.ucdb; run -all; exit" "+UVM_TESTNAME=apb_single_slave_rand_rw_test" 
# Start time: 17:15:48 on Jul 04,2026
# ** Note: (vsim-8009) Loading existing optimized design _opt1
# //  Questa Sim-64
# //  Version 10.7c win64 Aug 18 2018
# //
# //  Copyright 1991-2018 Mentor Graphics Corporation
# //  All Rights Reserved.
# //
# //  QuestaSim and its associated documentation contain trade
# //  secrets and commercial or financial information that are the property of
# //  Mentor Graphics Corporation and are privileged, confidential,
# //  and exempt from disclosure under the Freedom of Information Act,
# //  5 U.S.C. Section 552. Furthermore, this information
# //  is prohibited from disclosure under the Trade Secrets Act,
# //  18 U.S.C. Section 1905.
# //
# Loading sv_std.std
# Loading work.apb_inf(fast)
# Loading mtiUvm.uvm_pkg
# Loading work.apb_pkg(fast)
# Loading work.apb_top_sv_unit(fast)
# Loading work.apb_top(fast)
# Loading work.apb_pkg_sv_unit(fast)
# Loading work.apb_inf(fast)
# Loading mtiUvm.questa_uvm_pkg(fast)
# Loading C:/questasim64_10.7c/uvm-1.1d\win64\uvm_dpi.dll
# Sv_Seed = 1051997262
# coverage save -onexit results/tc1/tc1.ucdb
#  run -all
# ----------------------------------------------------------------
# UVM-1.1d
# (C) 2007-2013 Mentor Graphics Corporation
# (C) 2007-2013 Cadence Design Systems, Inc.
# (C) 2006-2013 Synopsys, Inc.
# (C) 2011-2013 Cypress Semiconductor Corp.
# ----------------------------------------------------------------
# 
#   ***********       IMPORTANT RELEASE NOTES         ************
# 
#   You are using a version of the UVM library that has been compiled
#   with `UVM_NO_DEPRECATED undefined.
#   See http://www.eda.org/svdb/view.php?id=3313 for more details.
# 
#   You are using a version of the UVM library that has been compiled
#   with `UVM_OBJECT_MUST_HAVE_CONSTRUCTOR undefined.
#   See http://www.eda.org/svdb/view.php?id=3770 for more details.
# 
#       (Specify +UVM_NO_RELNOTES to turn off this notice)
# 
# UVM_INFO verilog_src/questa_uvm_pkg-1.2/src/questa_uvm_pkg.sv(215) @ 0: reporter [Questa UVM] QUESTA_UVM-1.2.3
# UVM_INFO verilog_src/questa_uvm_pkg-1.2/src/questa_uvm_pkg.sv(216) @ 0: reporter [Questa UVM]  questa_uvm::init(+struct)
# UVM_INFO @ 0: reporter [RNTST] Running test apb_single_slave_rand_rw_test...
# UVM_INFO ../test/apb_base_test.sv(60) @ 0: uvm_test_top [apb_single_slave_rand_rw_test] Build-Phase complete in Test
# UVM_INFO ../env/apb_env.sv(53) @ 0: uvm_test_top.env_h [apb_env] ENV built | slaves=1
# UVM_INFO ../master_agent/apb_master_agent.sv(23) @ 0: uvm_test_top.env_h.agent_hm [apb_master_agent] Executing Build-Phase in Master Agent
# UVM_INFO ../master_agent/apb_master_agent.sv(39) @ 0: uvm_test_top.env_h.agent_hm [apb_master_agent] Build-Phase Complete in Master Agent
# ------ Execution Done Build-Phase in Master Driver -------
# UVM_INFO ../slave_agent/apb_slave_agent.sv(23) @ 0: uvm_test_top.env_h.agent_hs_0 [apb_slave_agent] Executing Build-Phase in Slave Agent
# UVM_INFO ../slave_agent/apb_slave_agent.sv(39) @ 0: uvm_test_top.env_h.agent_hs_0 [apb_slave_agent] Build-Phase Complete in Slave Agent
# UVM_INFO ../slave_agent/apb_slave_drv.sv(30) @ 0: uvm_test_top.env_h.agent_hs_0.drv_hs [apb_slave_drv] Build-Phase Complete in Slave Driver
# UVM_INFO ../master_agent/apb_master_agent.sv(47) @ 0: uvm_test_top.env_h.agent_hm [apb_master_agent] Executing Connect-Phase in Master Agent
# UVM_INFO ../master_agent/apb_master_agent.sv(53) @ 0: uvm_test_top.env_h.agent_hm [apb_master_agent] Connect-Phase Complete in Master Agent
# UVM_INFO ../slave_agent/apb_slave_agent.sv(47) @ 0: uvm_test_top.env_h.agent_hs_0 [apb_slave_agent] Executing Connect-Phase in Slave Agent
# UVM_INFO ../slave_agent/apb_slave_agent.sv(53) @ 0: uvm_test_top.env_h.agent_hs_0 [apb_slave_agent] Connect-Phase Complete in Slave Agent
# UVM_INFO ../env/apb_env.sv(71) @ 0: uvm_test_top.env_h [apb_env] Connect-Phase complete in ENV
# UVM_INFO @ 0: reporter [UVMTOP] UVM testbench topology:
# ---------------------------------------------------------------------
# Name                       Type                           Size  Value
# ---------------------------------------------------------------------
# uvm_test_top               apb_single_slave_rand_rw_test  -     @475 
#   env_h                    apb_env                        -     @495 
#     agent_hm               apb_master_agent               -     @522 
#       drv_hm               apb_master_drv                 -     @579 
#         rsp_port           uvm_analysis_port              -     @594 
#         seq_item_port      uvm_seq_item_pull_port         -     @586 
#       mon_hm               apb_master_mon                 -     @564 
#         mas_mon_ap         uvm_analysis_port              -     @571 
#       seqr_hm              apb_master_seqr                -     @602 
#         rsp_export         uvm_analysis_export            -     @609 
#         seq_item_export    uvm_seq_item_pull_imp          -     @703 
#         arbitration_queue  array                          0     -    
#         lock_queue         array                          0     -    
#         num_last_reqs      integral                       32    'd1  
#         num_last_rsps      integral                       32    'd1  
#     agent_hs_0             apb_slave_agent                -     @551 
#       drv_hs               apb_slave_drv                  -     @742 
#         rsp_port           uvm_analysis_port              -     @757 
#         seq_item_port      uvm_seq_item_pull_port         -     @749 
#       mon_hs               apb_slave_mon                  -     @727 
#         slv_mon_ap         uvm_analysis_port              -     @734 
#       seqr_hs              apb_slave_seqr                 -     @765 
#         rsp_export         uvm_analysis_export            -     @772 
#         seq_item_export    uvm_seq_item_pull_imp          -     @866 
#         arbitration_queue  array                          0     -    
#         lock_queue         array                          0     -    
#         num_last_reqs      integral                       32    'd1  
#         num_last_rsps      integral                       32    'd1  
#     cov_h                  apb_coverage                   -     @529 
#       analysis_imp         uvm_analysis_imp               -     @536 
#       slv_mon2_cov_af_0    uvm_tlm_analysis_fifo #(T)     -     @883 
#         analysis_export    uvm_analysis_imp               -     @922 
#         get_ap             uvm_analysis_port              -     @914 
#         get_peek_export    uvm_get_peek_imp               -     @898 
#         put_ap             uvm_analysis_port              -     @906 
#         put_export         uvm_put_imp                    -     @890 
#     sb_h                   apb_sb                         -     @544 
#       mas_mon_fifo_h       uvm_tlm_analysis_fifo #(T)     -     @930 
#         analysis_export    uvm_analysis_imp               -     @969 
#         get_ap             uvm_analysis_port              -     @961 
#         get_peek_export    uvm_get_peek_imp               -     @945 
#         put_ap             uvm_analysis_port              -     @953 
#         put_export         uvm_put_imp                    -     @937 
#       slv_mon_fifo_h_0     uvm_tlm_analysis_fifo #(T)     -     @986 
#         analysis_export    uvm_analysis_imp               -     @1025
#         get_ap             uvm_analysis_port              -     @1017
#         get_peek_export    uvm_get_peek_imp               -     @1001
#         put_ap             uvm_analysis_port              -     @1009
#         put_export         uvm_put_imp                    -     @993 
# ---------------------------------------------------------------------
# 
# UVM_INFO ../test/apb_base_test.sv(69) @ 0: uvm_test_top [apb_single_slave_rand_rw_test] End-of-Elaboration complete in Test
# UVM_INFO ../slave_agent/apb_slave_config.sv(52) @ 0: reporter [apb_slave_config] Slave-0 | Range: 0x0–0xff | is_active=UVM_ACTIVE | wait=0
# 
# ---------- apb_single_slave_rand_rw_seqs transaction : 1 ----------
# 
# UVM_INFO ../slave_agent/apb_slave_drv.sv(58) @ 50: uvm_test_top.env_h.agent_hs_0.drv_hs [apb_slave_drv] Transaction received at SLAVE-DRIVER =
# -----------------------------------------------------------------------------------------------------
# Name                           Type             Size  Value                                          
# -----------------------------------------------------------------------------------------------------
# trans_hs                       apb_slave_trans  -     @1043                                          
#   PADDR                        integral         8     'h0xx                                          
#   PWDATA                       integral         32    'h0xxxxxxxx                                    
#   PRDATA                       integral         32    'h0xxxxxxxx                                    
#   PSTRB                        integral         4     'h0x                                           
#   PWRITE                       integral         1     'h0X                                           
#   PENABLE                      integral         1     'h0X                                           
#   PREADY                       integral         1     'h0X                                           
#   PSLVERR                      integral         1     'h0X                                           
#   PSEL                         da(integral)     0     -                                              
#   no_of_wait_cycles            integral         32    'd0                                            
#   wait_enable                  integral         1     'd0                                            
#   begin_time                   time             64    50                                             
#   depth                        int              32    'd2                                            
#   parent sequence (name)       string           9     seqs_hs_0                                      
#   parent sequence (full name)  string           47    uvm_test_top.env_h.agent_hs_0.seqr_hs.seqs_hs_0
#   sequencer                    string           37    uvm_test_top.env_h.agent_hs_0.seqr_hs          
# -----------------------------------------------------------------------------------------------------
# 
# UVM_INFO ../master_agent/apb_master_drv.sv(148) @ 50: uvm_test_top.env_h.agent_hm.drv_hm [apb_master_drv] [MASTER-TRANS-1] Data Received at MASTER-DRIVER =
# ---------------------------------------------------------------------------------------------------------
# Name                           Type              Size  Value                                             
# ---------------------------------------------------------------------------------------------------------
# trans_hm                       apb_master_trans  -     @1047                                             
#   PWRITE                       integral          1     'h1                                               
#   PADDR                        integral          8     'h53                                              
#   PWDATA                       integral          32    'ha0b13403                                        
#   PSTRB                        integral          4     'h1                                               
#   PENABLE                      integral          1     'h1                                               
#   PSEL                         da(integral)      0     -                                                 
#   trans_size                   transfer_size_e   2     BYTE                                              
#   PREADY                       integral          1     'h0X                                              
#   PRDATA                       integral          32    'h0xxxxxxxx                                       
#   PSLVERR                      integral          1     'h0X                                              
#   begin_time                   time              64    50                                                
#   depth                        int               32    'd2                                               
#   parent sequence (name)       string            14    single_slv_seq                                    
#   parent sequence (full name)  string            50    uvm_test_top.env_h.agent_hm.seqr_hm.single_slv_seq
#   sequencer                    string            35    uvm_test_top.env_h.agent_hm.seqr_hm               
#   Direction                    string            5     WRITE                                             
#   Trans Size                   string            4     BYTE                                              
# ---------------------------------------------------------------------------------------------------------
# 
# UVM_INFO ../slave_agent/apb_slave_drv.sv(119) @ 90: uvm_test_top.env_h.agent_hs_0.drv_hs [apb_slave_drv] WRITE | ADDR=0x53 | DATA=0x3 | STRB=0x1
# UVM_INFO ../slave_agent/apb_slave_mon.sv(102) @ 110: uvm_test_top.env_h.agent_hs_0.mon_hs [apb_slave_mon] Slave-0 WRITE sampled =
# -------------------------------------------------------
# Name                 Type             Size  Value      
# -------------------------------------------------------
# trans_hs             apb_slave_trans  -     @1099      
#   PADDR              integral         8     'h53       
#   PWDATA             integral         32    'ha0b13403 
#   PRDATA             integral         32    'h0xxxxxxxx
#   PSTRB              integral         4     'h1        
#   PWRITE             integral         1     'h1        
#   PENABLE            integral         1     'h1        
#   PREADY             integral         1     'h1        
#   PSLVERR            integral         1     'h0X       
#   PSEL               da(integral)     0     -          
#   no_of_wait_cycles  integral         32    'd0        
#   wait_enable        integral         1     'dX        
# -------------------------------------------------------
# 
# UVM_INFO ../slave_agent/apb_slave_mon.sv(111) @ 110: uvm_test_top.env_h.agent_hs_0.mon_hs [apb_slave_mon] Slave-0 transaction sent to scoreboard = 
# -------------------------------------------------------
# Name                 Type             Size  Value      
# -------------------------------------------------------
# trans_hs             apb_slave_trans  -     @1099      
#   PADDR              integral         8     'h53       
#   PWDATA             integral         32    'ha0b13403 
#   PRDATA             integral         32    'h0xxxxxxxx
#   PSTRB              integral         4     'h1        
#   PWRITE             integral         1     'h1        
#   PENABLE            integral         1     'h1        
#   PREADY             integral         1     'h1        
#   PSLVERR            integral         1     'h0X       
#   PSEL               da(integral)     0     -          
#   no_of_wait_cycles  integral         32    'd0        
#   wait_enable        integral         1     'dX        
# -------------------------------------------------------
# 
# UVM_INFO ../master_agent/apb_master_drv.sv(158) @ 110: uvm_test_top.env_h.agent_hm.drv_hm [apb_master_drv] [MASTER-TRANS-1] Transfer Complete — MASTER-DRIVER
# ---------------------------------------------------------------------------------------------------------
# Name                           Type              Size  Value                                             
# ---------------------------------------------------------------------------------------------------------
# trans_hm                       apb_master_trans  -     @1047                                             
#   PWRITE                       integral          1     'h1                                               
#   PADDR                        integral          8     'h53                                              
#   PWDATA                       integral          32    'ha0b13403                                        
#   PSTRB                        integral          4     'h1                                               
#   PENABLE                      integral          1     'h1                                               
#   PSEL                         da(integral)      1     -                                                 
#     [0]                        integral          1     'h1                                               
#   trans_size                   transfer_size_e   2     BYTE                                              
#   PREADY                       integral          1     'h0X                                              
#   PRDATA                       integral          32    'h0xxxxxxxx                                       
#   PSLVERR                      integral          1     'h0X                                              
#   begin_time                   time              64    50                                                
#   depth                        int               32    'd2                                               
#   parent sequence (name)       string            14    single_slv_seq                                    
#   parent sequence (full name)  string            50    uvm_test_top.env_h.agent_hm.seqr_hm.single_slv_seq
#   sequencer                    string            35    uvm_test_top.env_h.agent_hm.seqr_hm               
#   Direction                    string            5     WRITE                                             
#   Trans Size                   string            4     BYTE                                              
# ---------------------------------------------------------------------------------------------------------
# 
# UVM_INFO ../slave_agent/apb_slave_drv.sv(67) @ 110: uvm_test_top.env_h.agent_hs_0.drv_hs [apb_slave_drv] Transaction complete at SLAVE-DRIVER =
# -----------------------------------------------------------------------------------------------------
# Name                           Type             Size  Value                                          
# -----------------------------------------------------------------------------------------------------
# trans_hs                       apb_slave_trans  -     @1043                                          
#   PADDR                        integral         8     'h0xx                                          
#   PWDATA                       integral         32    'h0xxxxxxxx                                    
#   PRDATA                       integral         32    'h0xxxxxxxx                                    
#   PSTRB                        integral         4     'h0x                                           
#   PWRITE                       integral         1     'h0X                                           
#   PENABLE                      integral         1     'h0X                                           
#   PREADY                       integral         1     'h0X                                           
#   PSLVERR                      integral         1     'h0X                                           
#   PSEL                         da(integral)     0     -                                              
#   no_of_wait_cycles            integral         32    'd0                                            
#   wait_enable                  integral         1     'd0                                            
#   begin_time                   time             64    50                                             
#   depth                        int              32    'd2                                            
#   parent sequence (name)       string           9     seqs_hs_0                                      
#   parent sequence (full name)  string           47    uvm_test_top.env_h.agent_hs_0.seqr_hs.seqs_hs_0
#   sequencer                    string           37    uvm_test_top.env_h.agent_hs_0.seqr_hs          
# -----------------------------------------------------------------------------------------------------
# 
# UVM_INFO ../env/apb_sb.sv(127) @ 110: uvm_test_top.env_h.sb_h [apb_sb] Data received from slave 0 monitor = 
# -------------------------------------------------------
# Name                 Type             Size  Value      
# -------------------------------------------------------
# trans_hs             apb_slave_trans  -     @1099      
#   PADDR              integral         8     'h53       
#   PWDATA             integral         32    'ha0b13403 
#   PRDATA             integral         32    'h0xxxxxxxx
#   PSTRB              integral         4     'h1        
#   PWRITE             integral         1     'h1        
#   PENABLE            integral         1     'h1        
#   PREADY             integral         1     'h1        
#   PSLVERR            integral         1     'h0X       
#   PSEL               da(integral)     0     -          
#   no_of_wait_cycles  integral         32    'd0        
#   wait_enable        integral         1     'dX        
# -------------------------------------------------------
# 
# UVM_INFO ../test//master_tc/apb_single_slave_rand_rw_seqs.sv(31) @ 110: uvm_test_top.env_h.agent_hm.seqr_hm@@single_slv_seq [apb_single_slave_rand_rw_seqs] Transaction-1 sent from MASTER SEQS =
# ---------------------------------------------------------------------------------------------------------
# Name                           Type              Size  Value                                             
# ---------------------------------------------------------------------------------------------------------
# trans_hm                       apb_master_trans  -     @1047                                             
#   PWRITE                       integral          1     'h1                                               
#   PADDR                        integral          8     'h53                                              
#   PWDATA                       integral          32    'ha0b13403                                        
#   PSTRB                        integral          4     'h1                                               
#   PENABLE                      integral          1     'h1                                               
#   PSEL                         da(integral)      1     -                                                 
#     [0]                        integral          1     'h1                                               
#   trans_size                   transfer_size_e   2     BYTE                                              
#   PREADY                       integral          1     'h0X                                              
#   PRDATA                       integral          32    'h0xxxxxxxx                                       
#   PSLVERR                      integral          1     'h0X                                              
#   begin_time                   time              64    50                                                
#   end_time                     time              64    110                                               
#   depth                        int               32    'd2                                               
#   parent sequence (name)       string            14    single_slv_seq                                    
#   parent sequence (full name)  string            50    uvm_test_top.env_h.agent_hm.seqr_hm.single_slv_seq
#   sequencer                    string            35    uvm_test_top.env_h.agent_hm.seqr_hm               
#   Direction                    string            5     WRITE                                             
#   Trans Size                   string            4     BYTE                                              
# ---------------------------------------------------------------------------------------------------------
# 
# 
# ---------- apb_single_slave_rand_rw_seqs transaction : 2 ----------
# 
# UVM_INFO ../slave_agent/apb_slave_drv.sv(58) @ 110: uvm_test_top.env_h.agent_hs_0.drv_hs [apb_slave_drv] Transaction received at SLAVE-DRIVER =
# -----------------------------------------------------------------------------------------------------
# Name                           Type             Size  Value                                          
# -----------------------------------------------------------------------------------------------------
# trans_hs                       apb_slave_trans  -     @1113                                          
#   PADDR                        integral         8     'h0xx                                          
#   PWDATA                       integral         32    'h0xxxxxxxx                                    
#   PRDATA                       integral         32    'h0xxxxxxxx                                    
#   PSTRB                        integral         4     'h0x                                           
#   PWRITE                       integral         1     'h0X                                           
#   PENABLE                      integral         1     'h0X                                           
#   PREADY                       integral         1     'h0X                                           
#   PSLVERR                      integral         1     'h0X                                           
#   PSEL                         da(integral)     0     -                                              
#   no_of_wait_cycles            integral         32    'd0                                            
#   wait_enable                  integral         1     'd0                                            
#   begin_time                   time             64    110                                            
#   depth                        int              32    'd2                                            
#   parent sequence (name)       string           9     seqs_hs_0                                      
#   parent sequence (full name)  string           47    uvm_test_top.env_h.agent_hs_0.seqr_hs.seqs_hs_0
#   sequencer                    string           37    uvm_test_top.env_h.agent_hs_0.seqr_hs          
# -----------------------------------------------------------------------------------------------------
# 
# UVM_INFO ../master_agent/apb_master_drv.sv(148) @ 110: uvm_test_top.env_h.agent_hm.drv_hm [apb_master_drv] [MASTER-TRANS-2] Data Received at MASTER-DRIVER =
# ---------------------------------------------------------------------------------------------------------
# Name                           Type              Size  Value                                             
# ---------------------------------------------------------------------------------------------------------
# trans_hm                       apb_master_trans  -     @1108                                             
#   PWRITE                       integral          1     'h0                                               
#   PADDR                        integral          8     'hdd                                              
#   PWDATA                       integral          32    'h0                                               
#   PSTRB                        integral          4     'h0                                               
#   PENABLE                      integral          1     'h1                                               
#   PSEL                         da(integral)      0     -                                                 
#   trans_size                   transfer_size_e   2     WORD                                              
#   PREADY                       integral          1     'h0X                                              
#   PRDATA                       integral          32    'h0xxxxxxxx                                       
#   PSLVERR                      integral          1     'h0X                                              
#   begin_time                   time              64    110                                               
#   depth                        int               32    'd2                                               
#   parent sequence (name)       string            14    single_slv_seq                                    
#   parent sequence (full name)  string            50    uvm_test_top.env_h.agent_hm.seqr_hm.single_slv_seq
#   sequencer                    string            35    uvm_test_top.env_h.agent_hm.seqr_hm               
#   Direction                    string            4     READ                                              
#   Trans Size                   string            4     WORD                                              
# ---------------------------------------------------------------------------------------------------------
# 
# UVM_INFO ../slave_agent/apb_slave_drv.sv(142) @ 150: uvm_test_top.env_h.agent_hs_0.drv_hs [apb_slave_drv] READ_ERROR | ADDR=0xdd not in mem_model — returning 0
# UVM_INFO ../slave_agent/apb_slave_mon.sv(104) @ 170: uvm_test_top.env_h.agent_hs_0.mon_hs [apb_slave_mon] Slave-0 READ  sampled =
# -------------------------------------------------------
# Name                 Type             Size  Value      
# -------------------------------------------------------
# trans_hs             apb_slave_trans  -     @1103      
#   PADDR              integral         8     'hdd       
#   PWDATA             integral         32    'h0xxxxxxxx
#   PRDATA             integral         32    'h0xxxxxxxx
#   PSTRB              integral         4     'h0x       
#   PWRITE             integral         1     'h0        
#   PENABLE            integral         1     'h1        
#   PREADY             integral         1     'h1        
#   PSLVERR            integral         1     'h0X       
#   PSEL               da(integral)     0     -          
#   no_of_wait_cycles  integral         32    'd0        
#   wait_enable        integral         1     'dX        
# -------------------------------------------------------
# 
# UVM_INFO ../slave_agent/apb_slave_mon.sv(111) @ 170: uvm_test_top.env_h.agent_hs_0.mon_hs [apb_slave_mon] Slave-0 transaction sent to scoreboard = 
# -------------------------------------------------------
# Name                 Type             Size  Value      
# -------------------------------------------------------
# trans_hs             apb_slave_trans  -     @1103      
#   PADDR              integral         8     'hdd       
#   PWDATA             integral         32    'h0xxxxxxxx
#   PRDATA             integral         32    'h0xxxxxxxx
#   PSTRB              integral         4     'h0x       
#   PWRITE             integral         1     'h0        
#   PENABLE            integral         1     'h1        
#   PREADY             integral         1     'h1        
#   PSLVERR            integral         1     'h0X       
#   PSEL               da(integral)     0     -          
#   no_of_wait_cycles  integral         32    'd0        
#   wait_enable        integral         1     'dX        
# -------------------------------------------------------
# 
# UVM_INFO ../master_agent/apb_master_drv.sv(158) @ 170: uvm_test_top.env_h.agent_hm.drv_hm [apb_master_drv] [MASTER-TRANS-2] Transfer Complete — MASTER-DRIVER
# ---------------------------------------------------------------------------------------------------------
# Name                           Type              Size  Value                                             
# ---------------------------------------------------------------------------------------------------------
# trans_hm                       apb_master_trans  -     @1108                                             
#   PWRITE                       integral          1     'h0                                               
#   PADDR                        integral          8     'hdd                                              
#   PWDATA                       integral          32    'h0                                               
#   PSTRB                        integral          4     'h0                                               
#   PENABLE                      integral          1     'h1                                               
#   PSEL                         da(integral)      1     -                                                 
#     [0]                        integral          1     'h1                                               
#   trans_size                   transfer_size_e   2     WORD                                              
#   PREADY                       integral          1     'h0X                                              
#   PRDATA                       integral          32    'h0xxxxxxxx                                       
#   PSLVERR                      integral          1     'h0X                                              
#   begin_time                   time              64    110                                               
#   depth                        int               32    'd2                                               
#   parent sequence (name)       string            14    single_slv_seq                                    
#   parent sequence (full name)  string            50    uvm_test_top.env_h.agent_hm.seqr_hm.single_slv_seq
#   sequencer                    string            35    uvm_test_top.env_h.agent_hm.seqr_hm               
#   Direction                    string            4     READ                                              
#   Trans Size                   string            4     WORD                                              
# ---------------------------------------------------------------------------------------------------------
# 
# UVM_INFO ../slave_agent/apb_slave_drv.sv(67) @ 170: uvm_test_top.env_h.agent_hs_0.drv_hs [apb_slave_drv] Transaction complete at SLAVE-DRIVER =
# -----------------------------------------------------------------------------------------------------
# Name                           Type             Size  Value                                          
# -----------------------------------------------------------------------------------------------------
# trans_hs                       apb_slave_trans  -     @1113                                          
#   PADDR                        integral         8     'h0xx                                          
#   PWDATA                       integral         32    'h0xxxxxxxx                                    
#   PRDATA                       integral         32    'h0xxxxxxxx                                    
#   PSTRB                        integral         4     'h0x                                           
#   PWRITE                       integral         1     'h0X                                           
#   PENABLE                      integral         1     'h0X                                           
#   PREADY                       integral         1     'h0X                                           
#   PSLVERR                      integral         1     'h0X                                           
#   PSEL                         da(integral)     0     -                                              
#   no_of_wait_cycles            integral         32    'd0                                            
#   wait_enable                  integral         1     'd0                                            
#   begin_time                   time             64    110                                            
#   depth                        int              32    'd2                                            
#   parent sequence (name)       string           9     seqs_hs_0                                      
#   parent sequence (full name)  string           47    uvm_test_top.env_h.agent_hs_0.seqr_hs.seqs_hs_0
#   sequencer                    string           37    uvm_test_top.env_h.agent_hs_0.seqr_hs          
# -----------------------------------------------------------------------------------------------------
# 
# UVM_INFO ../env/apb_sb.sv(106) @ 170: uvm_test_top.env_h.sb_h [apb_sb] Data received from master monitor = 
# -------------------------------------------------
# Name          Type              Size  Value      
# -------------------------------------------------
# trans_hm      apb_master_trans  -     @1039      
#   PWRITE      integral          1     'h0        
#   PADDR       integral          8     'hdd       
#   PWDATA      integral          32    'h0        
#   PSTRB       integral          4     'h0x       
#   PENABLE     integral          1     'h1        
#   PSEL        da(integral)      0     -          
#   trans_size  transfer_size_e   2     EMPTY      
#   PREADY      integral          1     'h1        
#   PRDATA      integral          32    'h0xxxxxxxx
#   PSLVERR     integral          1     'h0        
#   Direction   string            4     READ       
#   Trans Size  string            5     EMPTY      
# -------------------------------------------------
# 
# UVM_INFO ../env/apb_sb.sv(127) @ 170: uvm_test_top.env_h.sb_h [apb_sb] Data received from slave 0 monitor = 
# -------------------------------------------------------
# Name                 Type             Size  Value      
# -------------------------------------------------------
# trans_hs             apb_slave_trans  -     @1103      
#   PADDR              integral         8     'hdd       
#   PWDATA             integral         32    'h0xxxxxxxx
#   PRDATA             integral         32    'h0xxxxxxxx
#   PSTRB              integral         4     'h0x       
#   PWRITE             integral         1     'h0        
#   PENABLE            integral         1     'h1        
#   PREADY             integral         1     'h1        
#   PSLVERR            integral         1     'h0X       
#   PSEL               da(integral)     0     -          
#   no_of_wait_cycles  integral         32    'd0        
#   wait_enable        integral         1     'dX        
# -------------------------------------------------------
# 
# UVM_INFO ../env/apb_sb.sv(156) @ 170: uvm_test_top.env_h.sb_h [apb_sb] Data has not been written at desired location
# UVM_INFO ../test//master_tc/apb_single_slave_rand_rw_seqs.sv(31) @ 170: uvm_test_top.env_h.agent_hm.seqr_hm@@single_slv_seq [apb_single_slave_rand_rw_seqs] Transaction-2 sent from MASTER SEQS =
# ---------------------------------------------------------------------------------------------------------
# Name                           Type              Size  Value                                             
# ---------------------------------------------------------------------------------------------------------
# trans_hm                       apb_master_trans  -     @1108                                             
#   PWRITE                       integral          1     'h0                                               
#   PADDR                        integral          8     'hdd                                              
#   PWDATA                       integral          32    'h0                                               
#   PSTRB                        integral          4     'h0                                               
#   PENABLE                      integral          1     'h1                                               
#   PSEL                         da(integral)      1     -                                                 
#     [0]                        integral          1     'h1                                               
#   trans_size                   transfer_size_e   2     WORD                                              
#   PREADY                       integral          1     'h0X                                              
#   PRDATA                       integral          32    'h0xxxxxxxx                                       
#   PSLVERR                      integral          1     'h0X                                              
#   begin_time                   time              64    110                                               
#   end_time                     time              64    170                                               
#   depth                        int               32    'd2                                               
#   parent sequence (name)       string            14    single_slv_seq                                    
#   parent sequence (full name)  string            50    uvm_test_top.env_h.agent_hm.seqr_hm.single_slv_seq
#   sequencer                    string            35    uvm_test_top.env_h.agent_hm.seqr_hm               
#   Direction                    string            4     READ                                              
#   Trans Size                   string            4     WORD                                              
# ---------------------------------------------------------------------------------------------------------
# 
# 
# ---------- apb_single_slave_rand_rw_seqs transaction : 3 ----------
# 
# UVM_INFO ../slave_agent/apb_slave_drv.sv(58) @ 170: uvm_test_top.env_h.agent_hs_0.drv_hs [apb_slave_drv] Transaction received at SLAVE-DRIVER =
# -----------------------------------------------------------------------------------------------------
# Name                           Type             Size  Value                                          
# -----------------------------------------------------------------------------------------------------
# trans_hs                       apb_slave_trans  -     @1125                                          
#   PADDR                        integral         8     'h0xx                                          
#   PWDATA                       integral         32    'h0xxxxxxxx                                    
#   PRDATA                       integral         32    'h0xxxxxxxx                                    
#   PSTRB                        integral         4     'h0x                                           
#   PWRITE                       integral         1     'h0X                                           
#   PENABLE                      integral         1     'h0X                                           
#   PREADY                       integral         1     'h0X                                           
#   PSLVERR                      integral         1     'h0X                                           
#   PSEL                         da(integral)     0     -                                              
#   no_of_wait_cycles            integral         32    'd0                                            
#   wait_enable                  integral         1     'd0                                            
#   begin_time                   time             64    170                                            
#   depth                        int              32    'd2                                            
#   parent sequence (name)       string           9     seqs_hs_0                                      
#   parent sequence (full name)  string           47    uvm_test_top.env_h.agent_hs_0.seqr_hs.seqs_hs_0
#   sequencer                    string           37    uvm_test_top.env_h.agent_hs_0.seqr_hs          
# -----------------------------------------------------------------------------------------------------
# 
# UVM_INFO ../master_agent/apb_master_drv.sv(148) @ 170: uvm_test_top.env_h.agent_hm.drv_hm [apb_master_drv] [MASTER-TRANS-3] Data Received at MASTER-DRIVER =
# ---------------------------------------------------------------------------------------------------------
# Name                           Type              Size  Value                                             
# ---------------------------------------------------------------------------------------------------------
# trans_hm                       apb_master_trans  -     @1121                                             
#   PWRITE                       integral          1     'h1                                               
#   PADDR                        integral          8     'h58                                              
#   PWDATA                       integral          32    'h7f363ebe                                        
#   PSTRB                        integral          4     'hf                                               
#   PENABLE                      integral          1     'h1                                               
#   PSEL                         da(integral)      0     -                                                 
#   trans_size                   transfer_size_e   2     WORD                                              
#   PREADY                       integral          1     'h0X                                              
#   PRDATA                       integral          32    'h0xxxxxxxx                                       
#   PSLVERR                      integral          1     'h0X                                              
#   begin_time                   time              64    170                                               
#   depth                        int               32    'd2                                               
#   parent sequence (name)       string            14    single_slv_seq                                    
#   parent sequence (full name)  string            50    uvm_test_top.env_h.agent_hm.seqr_hm.single_slv_seq
#   sequencer                    string            35    uvm_test_top.env_h.agent_hm.seqr_hm               
#   Direction                    string            5     WRITE                                             
#   Trans Size                   string            4     WORD                                              
# ---------------------------------------------------------------------------------------------------------
# 
# UVM_INFO ../master_agent/apb_master_mon.sv(45) @ 190: uvm_test_top.env_h.agent_hm.mon_hm [apb_master_mon] Data Received at MASTER-MONITOR from SLAVE-DRIVER = 
# -------------------------------------------------
# Name          Type              Size  Value      
# -------------------------------------------------
# trans_hm      apb_master_trans  -     @1039      
#   PWRITE      integral          1     'h0        
#   PADDR       integral          8     'hdd       
#   PWDATA      integral          32    'h0        
#   PSTRB       integral          4     'h0x       
#   PENABLE     integral          1     'h1        
#   PSEL        da(integral)      0     -          
#   trans_size  transfer_size_e   2     EMPTY      
#   PREADY      integral          1     'h1        
#   PRDATA      integral          32    'h0xxxxxxxx
#   PSLVERR     integral          1     'h0        
#   Direction   string            4     READ       
#   Trans Size  string            5     EMPTY      
# -------------------------------------------------
# 
# UVM_INFO ../slave_agent/apb_slave_drv.sv(119) @ 210: uvm_test_top.env_h.agent_hs_0.drv_hs [apb_slave_drv] WRITE | ADDR=0x58 | DATA=0x7f363ebe | STRB=0xf
# UVM_INFO ../slave_agent/apb_slave_mon.sv(102) @ 230: uvm_test_top.env_h.agent_hs_0.mon_hs [apb_slave_mon] Slave-0 WRITE sampled =
# -------------------------------------------------------
# Name                 Type             Size  Value      
# -------------------------------------------------------
# trans_hs             apb_slave_trans  -     @1117      
#   PADDR              integral         8     'h58       
#   PWDATA             integral         32    'h7f363ebe 
#   PRDATA             integral         32    'h0xxxxxxxx
#   PSTRB              integral         4     'hf        
#   PWRITE             integral         1     'h1        
#   PENABLE            integral         1     'h1        
#   PREADY             integral         1     'h1        
#   PSLVERR            integral         1     'h0X       
#   PSEL               da(integral)     0     -          
#   no_of_wait_cycles  integral         32    'd0        
#   wait_enable        integral         1     'dX        
# -------------------------------------------------------
# 
# UVM_INFO ../slave_agent/apb_slave_mon.sv(111) @ 230: uvm_test_top.env_h.agent_hs_0.mon_hs [apb_slave_mon] Slave-0 transaction sent to scoreboard = 
# -------------------------------------------------------
# Name                 Type             Size  Value      
# -------------------------------------------------------
# trans_hs             apb_slave_trans  -     @1117      
#   PADDR              integral         8     'h58       
#   PWDATA             integral         32    'h7f363ebe 
#   PRDATA             integral         32    'h0xxxxxxxx
#   PSTRB              integral         4     'hf        
#   PWRITE             integral         1     'h1        
#   PENABLE            integral         1     'h1        
#   PREADY             integral         1     'h1        
#   PSLVERR            integral         1     'h0X       
#   PSEL               da(integral)     0     -          
#   no_of_wait_cycles  integral         32    'd0        
#   wait_enable        integral         1     'dX        
# -------------------------------------------------------
# 
# UVM_INFO ../master_agent/apb_master_drv.sv(158) @ 230: uvm_test_top.env_h.agent_hm.drv_hm [apb_master_drv] [MASTER-TRANS-3] Transfer Complete — MASTER-DRIVER
# ---------------------------------------------------------------------------------------------------------
# Name                           Type              Size  Value                                             
# ---------------------------------------------------------------------------------------------------------
# trans_hm                       apb_master_trans  -     @1121                                             
#   PWRITE                       integral          1     'h1                                               
#   PADDR                        integral          8     'h58                                              
#   PWDATA                       integral          32    'h7f363ebe                                        
#   PSTRB                        integral          4     'hf                                               
#   PENABLE                      integral          1     'h1                                               
#   PSEL                         da(integral)      1     -                                                 
#     [0]                        integral          1     'h1                                               
#   trans_size                   transfer_size_e   2     WORD                                              
#   PREADY                       integral          1     'h0X                                              
#   PRDATA                       integral          32    'h0xxxxxxxx                                       
#   PSLVERR                      integral          1     'h0X                                              
#   begin_time                   time              64    170                                               
#   depth                        int               32    'd2                                               
#   parent sequence (name)       string            14    single_slv_seq                                    
#   parent sequence (full name)  string            50    uvm_test_top.env_h.agent_hm.seqr_hm.single_slv_seq
#   sequencer                    string            35    uvm_test_top.env_h.agent_hm.seqr_hm               
#   Direction                    string            5     WRITE                                             
#   Trans Size                   string            4     WORD                                              
# ---------------------------------------------------------------------------------------------------------
# 
# UVM_INFO ../slave_agent/apb_slave_drv.sv(67) @ 230: uvm_test_top.env_h.agent_hs_0.drv_hs [apb_slave_drv] Transaction complete at SLAVE-DRIVER =
# -----------------------------------------------------------------------------------------------------
# Name                           Type             Size  Value                                          
# -----------------------------------------------------------------------------------------------------
# trans_hs                       apb_slave_trans  -     @1125                                          
#   PADDR                        integral         8     'h0xx                                          
#   PWDATA                       integral         32    'h0xxxxxxxx                                    
#   PRDATA                       integral         32    'h0xxxxxxxx                                    
#   PSTRB                        integral         4     'h0x                                           
#   PWRITE                       integral         1     'h0X                                           
#   PENABLE                      integral         1     'h0X                                           
#   PREADY                       integral         1     'h0X                                           
#   PSLVERR                      integral         1     'h0X                                           
#   PSEL                         da(integral)     0     -                                              
#   no_of_wait_cycles            integral         32    'd0                                            
#   wait_enable                  integral         1     'd0                                            
#   begin_time                   time             64    170                                            
#   depth                        int              32    'd2                                            
#   parent sequence (name)       string           9     seqs_hs_0                                      
#   parent sequence (full name)  string           47    uvm_test_top.env_h.agent_hs_0.seqr_hs.seqs_hs_0
#   sequencer                    string           37    uvm_test_top.env_h.agent_hs_0.seqr_hs          
# -----------------------------------------------------------------------------------------------------
# 
# UVM_INFO ../env/apb_sb.sv(127) @ 230: uvm_test_top.env_h.sb_h [apb_sb] Data received from slave 0 monitor = 
# -------------------------------------------------------
# Name                 Type             Size  Value      
# -------------------------------------------------------
# trans_hs             apb_slave_trans  -     @1117      
#   PADDR              integral         8     'h58       
#   PWDATA             integral         32    'h7f363ebe 
#   PRDATA             integral         32    'h0xxxxxxxx
#   PSTRB              integral         4     'hf        
#   PWRITE             integral         1     'h1        
#   PENABLE            integral         1     'h1        
#   PREADY             integral         1     'h1        
#   PSLVERR            integral         1     'h0X       
#   PSEL               da(integral)     0     -          
#   no_of_wait_cycles  integral         32    'd0        
#   wait_enable        integral         1     'dX        
# -------------------------------------------------------
# 
# UVM_INFO ../test//master_tc/apb_single_slave_rand_rw_seqs.sv(31) @ 230: uvm_test_top.env_h.agent_hm.seqr_hm@@single_slv_seq [apb_single_slave_rand_rw_seqs] Transaction-3 sent from MASTER SEQS =
# ---------------------------------------------------------------------------------------------------------
# Name                           Type              Size  Value                                             
# ---------------------------------------------------------------------------------------------------------
# trans_hm                       apb_master_trans  -     @1121                                             
#   PWRITE                       integral          1     'h1                                               
#   PADDR                        integral          8     'h58                                              
#   PWDATA                       integral          32    'h7f363ebe                                        
#   PSTRB                        integral          4     'hf                                               
#   PENABLE                      integral          1     'h1                                               
#   PSEL                         da(integral)      1     -                                                 
#     [0]                        integral          1     'h1                                               
#   trans_size                   transfer_size_e   2     WORD                                              
#   PREADY                       integral          1     'h0X                                              
#   PRDATA                       integral          32    'h0xxxxxxxx                                       
#   PSLVERR                      integral          1     'h0X                                              
#   begin_time                   time              64    170                                               
#   end_time                     time              64    230                                               
#   depth                        int               32    'd2                                               
#   parent sequence (name)       string            14    single_slv_seq                                    
#   parent sequence (full name)  string            50    uvm_test_top.env_h.agent_hm.seqr_hm.single_slv_seq
#   sequencer                    string            35    uvm_test_top.env_h.agent_hm.seqr_hm               
#   Direction                    string            5     WRITE                                             
#   Trans Size                   string            4     WORD                                              
# ---------------------------------------------------------------------------------------------------------
# 
# 
# ---------- apb_single_slave_rand_rw_seqs transaction : 4 ----------
# 
# UVM_INFO ../slave_agent/apb_slave_drv.sv(58) @ 230: uvm_test_top.env_h.agent_hs_0.drv_hs [apb_slave_drv] Transaction received at SLAVE-DRIVER =
# -----------------------------------------------------------------------------------------------------
# Name                           Type             Size  Value                                          
# -----------------------------------------------------------------------------------------------------
# trans_hs                       apb_slave_trans  -     @1137                                          
#   PADDR                        integral         8     'h0xx                                          
#   PWDATA                       integral         32    'h0xxxxxxxx                                    
#   PRDATA                       integral         32    'h0xxxxxxxx                                    
#   PSTRB                        integral         4     'h0x                                           
#   PWRITE                       integral         1     'h0X                                           
#   PENABLE                      integral         1     'h0X                                           
#   PREADY                       integral         1     'h0X                                           
#   PSLVERR                      integral         1     'h0X                                           
#   PSEL                         da(integral)     0     -                                              
#   no_of_wait_cycles            integral         32    'd0                                            
#   wait_enable                  integral         1     'd0                                            
#   begin_time                   time             64    230                                            
#   depth                        int              32    'd2                                            
#   parent sequence (name)       string           9     seqs_hs_0                                      
#   parent sequence (full name)  string           47    uvm_test_top.env_h.agent_hs_0.seqr_hs.seqs_hs_0
#   sequencer                    string           37    uvm_test_top.env_h.agent_hs_0.seqr_hs          
# -----------------------------------------------------------------------------------------------------
# 
# UVM_INFO ../master_agent/apb_master_drv.sv(148) @ 230: uvm_test_top.env_h.agent_hm.drv_hm [apb_master_drv] [MASTER-TRANS-4] Data Received at MASTER-DRIVER =
# ---------------------------------------------------------------------------------------------------------
# Name                           Type              Size  Value                                             
# ---------------------------------------------------------------------------------------------------------
# trans_hm                       apb_master_trans  -     @1133                                             
#   PWRITE                       integral          1     'h1                                               
#   PADDR                        integral          8     'h4b                                              
#   PWDATA                       integral          32    'h1c6cfc0a                                        
#   PSTRB                        integral          4     'hf                                               
#   PENABLE                      integral          1     'h1                                               
#   PSEL                         da(integral)      0     -                                                 
#   trans_size                   transfer_size_e   2     WORD                                              
#   PREADY                       integral          1     'h0X                                              
#   PRDATA                       integral          32    'h0xxxxxxxx                                       
#   PSLVERR                      integral          1     'h0X                                              
#   begin_time                   time              64    230                                               
#   depth                        int               32    'd2                                               
#   parent sequence (name)       string            14    single_slv_seq                                    
#   parent sequence (full name)  string            50    uvm_test_top.env_h.agent_hm.seqr_hm.single_slv_seq
#   sequencer                    string            35    uvm_test_top.env_h.agent_hm.seqr_hm               
#   Direction                    string            5     WRITE                                             
#   Trans Size                   string            4     WORD                                              
# ---------------------------------------------------------------------------------------------------------
# 
# UVM_INFO ../slave_agent/apb_slave_drv.sv(119) @ 270: uvm_test_top.env_h.agent_hs_0.drv_hs [apb_slave_drv] WRITE | ADDR=0x4b | DATA=0x1c6cfc0a | STRB=0xf
# UVM_INFO ../slave_agent/apb_slave_mon.sv(102) @ 290: uvm_test_top.env_h.agent_hs_0.mon_hs [apb_slave_mon] Slave-0 WRITE sampled =
# -------------------------------------------------------
# Name                 Type             Size  Value      
# -------------------------------------------------------
# trans_hs             apb_slave_trans  -     @1129      
#   PADDR              integral         8     'h4b       
#   PWDATA             integral         32    'h1c6cfc0a 
#   PRDATA             integral         32    'h0xxxxxxxx
#   PSTRB              integral         4     'hf        
#   PWRITE             integral         1     'h1        
#   PENABLE            integral         1     'h1        
#   PREADY             integral         1     'h1        
#   PSLVERR            integral         1     'h0X       
#   PSEL               da(integral)     0     -          
#   no_of_wait_cycles  integral         32    'd0        
#   wait_enable        integral         1     'dX        
# -------------------------------------------------------
# 
# UVM_INFO ../slave_agent/apb_slave_mon.sv(111) @ 290: uvm_test_top.env_h.agent_hs_0.mon_hs [apb_slave_mon] Slave-0 transaction sent to scoreboard = 
# -------------------------------------------------------
# Name                 Type             Size  Value      
# -------------------------------------------------------
# trans_hs             apb_slave_trans  -     @1129      
#   PADDR              integral         8     'h4b       
#   PWDATA             integral         32    'h1c6cfc0a 
#   PRDATA             integral         32    'h0xxxxxxxx
#   PSTRB              integral         4     'hf        
#   PWRITE             integral         1     'h1        
#   PENABLE            integral         1     'h1        
#   PREADY             integral         1     'h1        
#   PSLVERR            integral         1     'h0X       
#   PSEL               da(integral)     0     -          
#   no_of_wait_cycles  integral         32    'd0        
#   wait_enable        integral         1     'dX        
# -------------------------------------------------------
# 
# UVM_INFO ../master_agent/apb_master_drv.sv(158) @ 290: uvm_test_top.env_h.agent_hm.drv_hm [apb_master_drv] [MASTER-TRANS-4] Transfer Complete — MASTER-DRIVER
# ---------------------------------------------------------------------------------------------------------
# Name                           Type              Size  Value                                             
# ---------------------------------------------------------------------------------------------------------
# trans_hm                       apb_master_trans  -     @1133                                             
#   PWRITE                       integral          1     'h1                                               
#   PADDR                        integral          8     'h4b                                              
#   PWDATA                       integral          32    'h1c6cfc0a                                        
#   PSTRB                        integral          4     'hf                                               
#   PENABLE                      integral          1     'h1                                               
#   PSEL                         da(integral)      1     -                                                 
#     [0]                        integral          1     'h1                                               
#   trans_size                   transfer_size_e   2     WORD                                              
#   PREADY                       integral          1     'h0X                                              
#   PRDATA                       integral          32    'h0xxxxxxxx                                       
#   PSLVERR                      integral          1     'h0X                                              
#   begin_time                   time              64    230                                               
#   depth                        int               32    'd2                                               
#   parent sequence (name)       string            14    single_slv_seq                                    
#   parent sequence (full name)  string            50    uvm_test_top.env_h.agent_hm.seqr_hm.single_slv_seq
#   sequencer                    string            35    uvm_test_top.env_h.agent_hm.seqr_hm               
#   Direction                    string            5     WRITE                                             
#   Trans Size                   string            4     WORD                                              
# ---------------------------------------------------------------------------------------------------------
# 
# UVM_INFO ../slave_agent/apb_slave_drv.sv(67) @ 290: uvm_test_top.env_h.agent_hs_0.drv_hs [apb_slave_drv] Transaction complete at SLAVE-DRIVER =
# -----------------------------------------------------------------------------------------------------
# Name                           Type             Size  Value                                          
# -----------------------------------------------------------------------------------------------------
# trans_hs                       apb_slave_trans  -     @1137                                          
#   PADDR                        integral         8     'h0xx                                          
#   PWDATA                       integral         32    'h0xxxxxxxx                                    
#   PRDATA                       integral         32    'h0xxxxxxxx                                    
#   PSTRB                        integral         4     'h0x                                           
#   PWRITE                       integral         1     'h0X                                           
#   PENABLE                      integral         1     'h0X                                           
#   PREADY                       integral         1     'h0X                                           
#   PSLVERR                      integral         1     'h0X                                           
#   PSEL                         da(integral)     0     -                                              
#   no_of_wait_cycles            integral         32    'd0                                            
#   wait_enable                  integral         1     'd0                                            
#   begin_time                   time             64    230                                            
#   depth                        int              32    'd2                                            
#   parent sequence (name)       string           9     seqs_hs_0                                      
#   parent sequence (full name)  string           47    uvm_test_top.env_h.agent_hs_0.seqr_hs.seqs_hs_0
#   sequencer                    string           37    uvm_test_top.env_h.agent_hs_0.seqr_hs          
# -----------------------------------------------------------------------------------------------------
# 
# UVM_INFO ../env/apb_sb.sv(127) @ 290: uvm_test_top.env_h.sb_h [apb_sb] Data received from slave 0 monitor = 
# -------------------------------------------------------
# Name                 Type             Size  Value      
# -------------------------------------------------------
# trans_hs             apb_slave_trans  -     @1129      
#   PADDR              integral         8     'h4b       
#   PWDATA             integral         32    'h1c6cfc0a 
#   PRDATA             integral         32    'h0xxxxxxxx
#   PSTRB              integral         4     'hf        
#   PWRITE             integral         1     'h1        
#   PENABLE            integral         1     'h1        
#   PREADY             integral         1     'h1        
#   PSLVERR            integral         1     'h0X       
#   PSEL               da(integral)     0     -          
#   no_of_wait_cycles  integral         32    'd0        
#   wait_enable        integral         1     'dX        
# -------------------------------------------------------
# 
# UVM_INFO ../test//master_tc/apb_single_slave_rand_rw_seqs.sv(31) @ 290: uvm_test_top.env_h.agent_hm.seqr_hm@@single_slv_seq [apb_single_slave_rand_rw_seqs] Transaction-4 sent from MASTER SEQS =
# ---------------------------------------------------------------------------------------------------------
# Name                           Type              Size  Value                                             
# ---------------------------------------------------------------------------------------------------------
# trans_hm                       apb_master_trans  -     @1133                                             
#   PWRITE                       integral          1     'h1                                               
#   PADDR                        integral          8     'h4b                                              
#   PWDATA                       integral          32    'h1c6cfc0a                                        
#   PSTRB                        integral          4     'hf                                               
#   PENABLE                      integral          1     'h1                                               
#   PSEL                         da(integral)      1     -                                                 
#     [0]                        integral          1     'h1                                               
#   trans_size                   transfer_size_e   2     WORD                                              
#   PREADY                       integral          1     'h0X                                              
#   PRDATA                       integral          32    'h0xxxxxxxx                                       
#   PSLVERR                      integral          1     'h0X                                              
#   begin_time                   time              64    230                                               
#   end_time                     time              64    290                                               
#   depth                        int               32    'd2                                               
#   parent sequence (name)       string            14    single_slv_seq                                    
#   parent sequence (full name)  string            50    uvm_test_top.env_h.agent_hm.seqr_hm.single_slv_seq
#   sequencer                    string            35    uvm_test_top.env_h.agent_hm.seqr_hm               
#   Direction                    string            5     WRITE                                             
#   Trans Size                   string            4     WORD                                              
# ---------------------------------------------------------------------------------------------------------
# 
# 
# ---------- apb_single_slave_rand_rw_seqs transaction : 5 ----------
# 
# UVM_INFO ../slave_agent/apb_slave_drv.sv(58) @ 290: uvm_test_top.env_h.agent_hs_0.drv_hs [apb_slave_drv] Transaction received at SLAVE-DRIVER =
# -----------------------------------------------------------------------------------------------------
# Name                           Type             Size  Value                                          
# -----------------------------------------------------------------------------------------------------
# trans_hs                       apb_slave_trans  -     @1149                                          
#   PADDR                        integral         8     'h0xx                                          
#   PWDATA                       integral         32    'h0xxxxxxxx                                    
#   PRDATA                       integral         32    'h0xxxxxxxx                                    
#   PSTRB                        integral         4     'h0x                                           
#   PWRITE                       integral         1     'h0X                                           
#   PENABLE                      integral         1     'h0X                                           
#   PREADY                       integral         1     'h0X                                           
#   PSLVERR                      integral         1     'h0X                                           
#   PSEL                         da(integral)     0     -                                              
#   no_of_wait_cycles            integral         32    'd1                                            
#   wait_enable                  integral         1     1                                              
#   begin_time                   time             64    290                                            
#   depth                        int              32    'd2                                            
#   parent sequence (name)       string           9     seqs_hs_0                                      
#   parent sequence (full name)  string           47    uvm_test_top.env_h.agent_hs_0.seqr_hs.seqs_hs_0
#   sequencer                    string           37    uvm_test_top.env_h.agent_hs_0.seqr_hs          
# -----------------------------------------------------------------------------------------------------
# 
# UVM_INFO ../master_agent/apb_master_drv.sv(148) @ 290: uvm_test_top.env_h.agent_hm.drv_hm [apb_master_drv] [MASTER-TRANS-5] Data Received at MASTER-DRIVER =
# ---------------------------------------------------------------------------------------------------------
# Name                           Type              Size  Value                                             
# ---------------------------------------------------------------------------------------------------------
# trans_hm                       apb_master_trans  -     @1145                                             
#   PWRITE                       integral          1     'h1                                               
#   PADDR                        integral          8     'h73                                              
#   PWDATA                       integral          32    'h45e022dd                                        
#   PSTRB                        integral          4     'hf                                               
#   PENABLE                      integral          1     'h1                                               
#   PSEL                         da(integral)      0     -                                                 
#   trans_size                   transfer_size_e   2     WORD                                              
#   PREADY                       integral          1     'h0X                                              
#   PRDATA                       integral          32    'h0xxxxxxxx                                       
#   PSLVERR                      integral          1     'h0X                                              
#   begin_time                   time              64    290                                               
#   depth                        int               32    'd2                                               
#   parent sequence (name)       string            14    single_slv_seq                                    
#   parent sequence (full name)  string            50    uvm_test_top.env_h.agent_hm.seqr_hm.single_slv_seq
#   sequencer                    string            35    uvm_test_top.env_h.agent_hm.seqr_hm               
#   Direction                    string            5     WRITE                                             
#   Trans Size                   string            4     WORD                                              
# ---------------------------------------------------------------------------------------------------------
# 
# UVM_INFO ../slave_agent/apb_slave_drv.sv(119) @ 350: uvm_test_top.env_h.agent_hs_0.drv_hs [apb_slave_drv] WRITE | ADDR=0x73 | DATA=0x45e022dd | STRB=0xf
# UVM_INFO ../slave_agent/apb_slave_mon.sv(102) @ 370: uvm_test_top.env_h.agent_hs_0.mon_hs [apb_slave_mon] Slave-0 WRITE sampled =
# -------------------------------------------------------
# Name                 Type             Size  Value      
# -------------------------------------------------------
# trans_hs             apb_slave_trans  -     @1141      
#   PADDR              integral         8     'h73       
#   PWDATA             integral         32    'h45e022dd 
#   PRDATA             integral         32    'h0xxxxxxxx
#   PSTRB              integral         4     'hf        
#   PWRITE             integral         1     'h1        
#   PENABLE            integral         1     'h1        
#   PREADY             integral         1     'h1        
#   PSLVERR            integral         1     'h0X       
#   PSEL               da(integral)     0     -          
#   no_of_wait_cycles  integral         32    'd0        
#   wait_enable        integral         1     'dX        
# -------------------------------------------------------
# 
# UVM_INFO ../slave_agent/apb_slave_mon.sv(111) @ 370: uvm_test_top.env_h.agent_hs_0.mon_hs [apb_slave_mon] Slave-0 transaction sent to scoreboard = 
# -------------------------------------------------------
# Name                 Type             Size  Value      
# -------------------------------------------------------
# trans_hs             apb_slave_trans  -     @1141      
#   PADDR              integral         8     'h73       
#   PWDATA             integral         32    'h45e022dd 
#   PRDATA             integral         32    'h0xxxxxxxx
#   PSTRB              integral         4     'hf        
#   PWRITE             integral         1     'h1        
#   PENABLE            integral         1     'h1        
#   PREADY             integral         1     'h1        
#   PSLVERR            integral         1     'h0X       
#   PSEL               da(integral)     0     -          
#   no_of_wait_cycles  integral         32    'd0        
#   wait_enable        integral         1     'dX        
# -------------------------------------------------------
# 
# UVM_INFO ../master_agent/apb_master_drv.sv(158) @ 370: uvm_test_top.env_h.agent_hm.drv_hm [apb_master_drv] [MASTER-TRANS-5] Transfer Complete — MASTER-DRIVER
# ---------------------------------------------------------------------------------------------------------
# Name                           Type              Size  Value                                             
# ---------------------------------------------------------------------------------------------------------
# trans_hm                       apb_master_trans  -     @1145                                             
#   PWRITE                       integral          1     'h1                                               
#   PADDR                        integral          8     'h73                                              
#   PWDATA                       integral          32    'h45e022dd                                        
#   PSTRB                        integral          4     'hf                                               
#   PENABLE                      integral          1     'h1                                               
#   PSEL                         da(integral)      1     -                                                 
#     [0]                        integral          1     'h1                                               
#   trans_size                   transfer_size_e   2     WORD                                              
#   PREADY                       integral          1     'h0X                                              
#   PRDATA                       integral          32    'h0xxxxxxxx                                       
#   PSLVERR                      integral          1     'h0X                                              
#   begin_time                   time              64    290                                               
#   depth                        int               32    'd2                                               
#   parent sequence (name)       string            14    single_slv_seq                                    
#   parent sequence (full name)  string            50    uvm_test_top.env_h.agent_hm.seqr_hm.single_slv_seq
#   sequencer                    string            35    uvm_test_top.env_h.agent_hm.seqr_hm               
#   Direction                    string            5     WRITE                                             
#   Trans Size                   string            4     WORD                                              
# ---------------------------------------------------------------------------------------------------------
# 
# UVM_INFO ../slave_agent/apb_slave_drv.sv(67) @ 370: uvm_test_top.env_h.agent_hs_0.drv_hs [apb_slave_drv] Transaction complete at SLAVE-DRIVER =
# -----------------------------------------------------------------------------------------------------
# Name                           Type             Size  Value                                          
# -----------------------------------------------------------------------------------------------------
# trans_hs                       apb_slave_trans  -     @1149                                          
#   PADDR                        integral         8     'h0xx                                          
#   PWDATA                       integral         32    'h0xxxxxxxx                                    
#   PRDATA                       integral         32    'h0xxxxxxxx                                    
#   PSTRB                        integral         4     'h0x                                           
#   PWRITE                       integral         1     'h0X                                           
#   PENABLE                      integral         1     'h0X                                           
#   PREADY                       integral         1     'h0X                                           
#   PSLVERR                      integral         1     'h0X                                           
#   PSEL                         da(integral)     0     -                                              
#   no_of_wait_cycles            integral         32    'd1                                            
#   wait_enable                  integral         1     1                                              
#   begin_time                   time             64    290                                            
#   depth                        int              32    'd2                                            
#   parent sequence (name)       string           9     seqs_hs_0                                      
#   parent sequence (full name)  string           47    uvm_test_top.env_h.agent_hs_0.seqr_hs.seqs_hs_0
#   sequencer                    string           37    uvm_test_top.env_h.agent_hs_0.seqr_hs          
# -----------------------------------------------------------------------------------------------------
# 
# UVM_INFO ../env/apb_sb.sv(127) @ 370: uvm_test_top.env_h.sb_h [apb_sb] Data received from slave 0 monitor = 
# -------------------------------------------------------
# Name                 Type             Size  Value      
# -------------------------------------------------------
# trans_hs             apb_slave_trans  -     @1141      
#   PADDR              integral         8     'h73       
#   PWDATA             integral         32    'h45e022dd 
#   PRDATA             integral         32    'h0xxxxxxxx
#   PSTRB              integral         4     'hf        
#   PWRITE             integral         1     'h1        
#   PENABLE            integral         1     'h1        
#   PREADY             integral         1     'h1        
#   PSLVERR            integral         1     'h0X       
#   PSEL               da(integral)     0     -          
#   no_of_wait_cycles  integral         32    'd0        
#   wait_enable        integral         1     'dX        
# -------------------------------------------------------
# 
# UVM_INFO ../test//master_tc/apb_single_slave_rand_rw_seqs.sv(31) @ 370: uvm_test_top.env_h.agent_hm.seqr_hm@@single_slv_seq [apb_single_slave_rand_rw_seqs] Transaction-5 sent from MASTER SEQS =
# ---------------------------------------------------------------------------------------------------------
# Name                           Type              Size  Value                                             
# ---------------------------------------------------------------------------------------------------------
# trans_hm                       apb_master_trans  -     @1145                                             
#   PWRITE                       integral          1     'h1                                               
#   PADDR                        integral          8     'h73                                              
#   PWDATA                       integral          32    'h45e022dd                                        
#   PSTRB                        integral          4     'hf                                               
#   PENABLE                      integral          1     'h1                                               
#   PSEL                         da(integral)      1     -                                                 
#     [0]                        integral          1     'h1                                               
#   trans_size                   transfer_size_e   2     WORD                                              
#   PREADY                       integral          1     'h0X                                              
#   PRDATA                       integral          32    'h0xxxxxxxx                                       
#   PSLVERR                      integral          1     'h0X                                              
#   begin_time                   time              64    290                                               
#   end_time                     time              64    370                                               
#   depth                        int               32    'd2                                               
#   parent sequence (name)       string            14    single_slv_seq                                    
#   parent sequence (full name)  string            50    uvm_test_top.env_h.agent_hm.seqr_hm.single_slv_seq
#   sequencer                    string            35    uvm_test_top.env_h.agent_hm.seqr_hm               
#   Direction                    string            5     WRITE                                             
#   Trans Size                   string            4     WORD                                              
# ---------------------------------------------------------------------------------------------------------
# 
# 
# ---------- apb_single_slave_rand_rw_seqs transaction : 6 ----------
# 
# UVM_INFO ../slave_agent/apb_slave_drv.sv(58) @ 370: uvm_test_top.env_h.agent_hs_0.drv_hs [apb_slave_drv] Transaction received at SLAVE-DRIVER =
# -----------------------------------------------------------------------------------------------------
# Name                           Type             Size  Value                                          
# -----------------------------------------------------------------------------------------------------
# trans_hs                       apb_slave_trans  -     @1161                                          
#   PADDR                        integral         8     'h0xx                                          
#   PWDATA                       integral         32    'h0xxxxxxxx                                    
#   PRDATA                       integral         32    'h0xxxxxxxx                                    
#   PSTRB                        integral         4     'h0x                                           
#   PWRITE                       integral         1     'h0X                                           
#   PENABLE                      integral         1     'h0X                                           
#   PREADY                       integral         1     'h0X                                           
#   PSLVERR                      integral         1     'h0X                                           
#   PSEL                         da(integral)     0     -                                              
#   no_of_wait_cycles            integral         32    'd0                                            
#   wait_enable                  integral         1     'd0                                            
#   begin_time                   time             64    370                                            
#   depth                        int              32    'd2                                            
#   parent sequence (name)       string           9     seqs_hs_0                                      
#   parent sequence (full name)  string           47    uvm_test_top.env_h.agent_hs_0.seqr_hs.seqs_hs_0
#   sequencer                    string           37    uvm_test_top.env_h.agent_hs_0.seqr_hs          
# -----------------------------------------------------------------------------------------------------
# 
# UVM_INFO ../master_agent/apb_master_drv.sv(148) @ 370: uvm_test_top.env_h.agent_hm.drv_hm [apb_master_drv] [MASTER-TRANS-6] Data Received at MASTER-DRIVER =
# ---------------------------------------------------------------------------------------------------------
# Name                           Type              Size  Value                                             
# ---------------------------------------------------------------------------------------------------------
# trans_hm                       apb_master_trans  -     @1157                                             
#   PWRITE                       integral          1     'h1                                               
#   PADDR                        integral          8     'h87                                              
#   PWDATA                       integral          32    'h62d55509                                        
#   PSTRB                        integral          4     'hf                                               
#   PENABLE                      integral          1     'h1                                               
#   PSEL                         da(integral)      0     -                                                 
#   trans_size                   transfer_size_e   2     WORD                                              
#   PREADY                       integral          1     'h0X                                              
#   PRDATA                       integral          32    'h0xxxxxxxx                                       
#   PSLVERR                      integral          1     'h0X                                              
#   begin_time                   time              64    370                                               
#   depth                        int               32    'd2                                               
#   parent sequence (name)       string            14    single_slv_seq                                    
#   parent sequence (full name)  string            50    uvm_test_top.env_h.agent_hm.seqr_hm.single_slv_seq
#   sequencer                    string            35    uvm_test_top.env_h.agent_hm.seqr_hm               
#   Direction                    string            5     WRITE                                             
#   Trans Size                   string            4     WORD                                              
# ---------------------------------------------------------------------------------------------------------
# 
# UVM_INFO ../slave_agent/apb_slave_drv.sv(119) @ 410: uvm_test_top.env_h.agent_hs_0.drv_hs [apb_slave_drv] WRITE | ADDR=0x87 | DATA=0x62d55509 | STRB=0xf
# UVM_INFO ../slave_agent/apb_slave_mon.sv(102) @ 430: uvm_test_top.env_h.agent_hs_0.mon_hs [apb_slave_mon] Slave-0 WRITE sampled =
# -------------------------------------------------------
# Name                 Type             Size  Value      
# -------------------------------------------------------
# trans_hs             apb_slave_trans  -     @1153      
#   PADDR              integral         8     'h87       
#   PWDATA             integral         32    'h62d55509 
#   PRDATA             integral         32    'h0xxxxxxxx
#   PSTRB              integral         4     'hf        
#   PWRITE             integral         1     'h1        
#   PENABLE            integral         1     'h1        
#   PREADY             integral         1     'h1        
#   PSLVERR            integral         1     'h0X       
#   PSEL               da(integral)     0     -          
#   no_of_wait_cycles  integral         32    'd0        
#   wait_enable        integral         1     'dX        
# -------------------------------------------------------
# 
# UVM_INFO ../slave_agent/apb_slave_mon.sv(111) @ 430: uvm_test_top.env_h.agent_hs_0.mon_hs [apb_slave_mon] Slave-0 transaction sent to scoreboard = 
# -------------------------------------------------------
# Name                 Type             Size  Value      
# -------------------------------------------------------
# trans_hs             apb_slave_trans  -     @1153      
#   PADDR              integral         8     'h87       
#   PWDATA             integral         32    'h62d55509 
#   PRDATA             integral         32    'h0xxxxxxxx
#   PSTRB              integral         4     'hf        
#   PWRITE             integral         1     'h1        
#   PENABLE            integral         1     'h1        
#   PREADY             integral         1     'h1        
#   PSLVERR            integral         1     'h0X       
#   PSEL               da(integral)     0     -          
#   no_of_wait_cycles  integral         32    'd0        
#   wait_enable        integral         1     'dX        
# -------------------------------------------------------
# 
# UVM_INFO ../master_agent/apb_master_drv.sv(158) @ 430: uvm_test_top.env_h.agent_hm.drv_hm [apb_master_drv] [MASTER-TRANS-6] Transfer Complete — MASTER-DRIVER
# ---------------------------------------------------------------------------------------------------------
# Name                           Type              Size  Value                                             
# ---------------------------------------------------------------------------------------------------------
# trans_hm                       apb_master_trans  -     @1157                                             
#   PWRITE                       integral          1     'h1                                               
#   PADDR                        integral          8     'h87                                              
#   PWDATA                       integral          32    'h62d55509                                        
#   PSTRB                        integral          4     'hf                                               
#   PENABLE                      integral          1     'h1                                               
#   PSEL                         da(integral)      1     -                                                 
#     [0]                        integral          1     'h1                                               
#   trans_size                   transfer_size_e   2     WORD                                              
#   PREADY                       integral          1     'h0X                                              
#   PRDATA                       integral          32    'h0xxxxxxxx                                       
#   PSLVERR                      integral          1     'h0X                                              
#   begin_time                   time              64    370                                               
#   depth                        int               32    'd2                                               
#   parent sequence (name)       string            14    single_slv_seq                                    
