# vsim -vopt apb_top -c -do "run -all; exit" 
# Start time: 16:24:20 on Jun 04,2026
# ** Note: (vsim-3813) Design is being optimized due to module recompilation...
# //  Questa Sim-64
# //  Version 10.7c win64 Aug 18 2018
# //
# //  Copyright 1991-2018 Mentor Graphics Corporation
# //  All Rights Reserved.
# //
# //  QuestaSim and its associated documentation contain trade
# //  secrets and commercial or financial information that are the property of
# //  Mentor Graphics Corporation and are privileged, confidential,
# //  and exempt from disclosure under the Freedom of Information Act,
# //  5 U.S.C. Section 552. Furthermore, this information
# //  is prohibited from disclosure under the Trade Secrets Act,
# //  18 U.S.C. Section 1905.
# //
# Loading sv_std.std
# Loading work.apb_inf(fast)
# Loading mtiUvm.uvm_pkg
# Loading work.apb_pkg(fast)
# Loading work.apb_top_sv_unit(fast)
# Loading work.apb_top(fast)
# Loading work.apb_pkg_sv_unit(fast)
# Loading work.apb_inf(fast)
# Loading mtiUvm.questa_uvm_pkg(fast)
# Loading C:/questasim64_10.7c/uvm-1.1d\win64\uvm_dpi.dll
# run -all
# ----------------------------------------------------------------
# UVM-1.1d
# (C) 2007-2013 Mentor Graphics Corporation
# (C) 2007-2013 Cadence Design Systems, Inc.
# (C) 2006-2013 Synopsys, Inc.
# (C) 2011-2013 Cypress Semiconductor Corp.
# ----------------------------------------------------------------
# 
#   ***********       IMPORTANT RELEASE NOTES         ************
# 
#   You are using a version of the UVM library that has been compiled
#   with `UVM_NO_DEPRECATED undefined.
#   See http://www.eda.org/svdb/view.php?id=3313 for more details.
# 
#   You are using a version of the UVM library that has been compiled
#   with `UVM_OBJECT_MUST_HAVE_CONSTRUCTOR undefined.
#   See http://www.eda.org/svdb/view.php?id=3770 for more details.
# 
#       (Specify +UVM_NO_RELNOTES to turn off this notice)
# 
# UVM_INFO verilog_src/questa_uvm_pkg-1.2/src/questa_uvm_pkg.sv(215) @ 0: reporter [Questa UVM] QUESTA_UVM-1.2.3
# UVM_INFO verilog_src/questa_uvm_pkg-1.2/src/questa_uvm_pkg.sv(216) @ 0: reporter [Questa UVM]  questa_uvm::init(+struct)
# UVM_INFO @ 0: reporter [RNTST] Running test apb_base_test...
# UVM_INFO ../test/apb_base_test.sv(59) @ 0: uvm_test_top [apb_base_test] Build-Phase complete in Test
# UVM_INFO ../env/apb_env.sv(58) @ 0: uvm_test_top.env_h [apb_env] ENV built | slaves=4
# UVM_INFO ../master_agent/apb_master_agent.sv(23) @ 0: uvm_test_top.env_h.agent_hm [apb_master_agent] Executing Build-Phase in Master Agent
# UVM_INFO ../master_agent/apb_master_agent.sv(39) @ 0: uvm_test_top.env_h.agent_hm [apb_master_agent] Build-Phase Complete in Master Agent
# ------ Execution Done Build-Phase in Master Driver -------
# UVM_INFO ../slave_agent/apb_slave_agent.sv(25) @ 0: uvm_test_top.env_h.agent_hs_0 [apb_slave_agent] Executing Build-Phase in Slave Agent
# UVM_INFO ../slave_agent/apb_slave_agent.sv(41) @ 0: uvm_test_top.env_h.agent_hs_0 [apb_slave_agent] Build-Phase Complete in Slave Agent
# UVM_INFO ../slave_agent/apb_slave_drv.sv(30) @ 0: uvm_test_top.env_h.agent_hs_0.drv_hs [apb_slave_drv] Build-Phase Complete in Slave Driver
# UVM_INFO ../slave_agent/apb_slave_agent.sv(25) @ 0: uvm_test_top.env_h.agent_hs_1 [apb_slave_agent] Executing Build-Phase in Slave Agent
# UVM_INFO ../slave_agent/apb_slave_agent.sv(41) @ 0: uvm_test_top.env_h.agent_hs_1 [apb_slave_agent] Build-Phase Complete in Slave Agent
# UVM_INFO ../slave_agent/apb_slave_drv.sv(30) @ 0: uvm_test_top.env_h.agent_hs_1.drv_hs [apb_slave_drv] Build-Phase Complete in Slave Driver
# UVM_INFO ../slave_agent/apb_slave_agent.sv(25) @ 0: uvm_test_top.env_h.agent_hs_2 [apb_slave_agent] Executing Build-Phase in Slave Agent
# UVM_INFO ../slave_agent/apb_slave_agent.sv(41) @ 0: uvm_test_top.env_h.agent_hs_2 [apb_slave_agent] Build-Phase Complete in Slave Agent
# UVM_INFO ../slave_agent/apb_slave_drv.sv(30) @ 0: uvm_test_top.env_h.agent_hs_2.drv_hs [apb_slave_drv] Build-Phase Complete in Slave Driver
# UVM_INFO ../slave_agent/apb_slave_agent.sv(25) @ 0: uvm_test_top.env_h.agent_hs_3 [apb_slave_agent] Executing Build-Phase in Slave Agent
# UVM_INFO ../slave_agent/apb_slave_agent.sv(41) @ 0: uvm_test_top.env_h.agent_hs_3 [apb_slave_agent] Build-Phase Complete in Slave Agent
# UVM_INFO ../slave_agent/apb_slave_drv.sv(30) @ 0: uvm_test_top.env_h.agent_hs_3.drv_hs [apb_slave_drv] Build-Phase Complete in Slave Driver
# UVM_INFO ../master_agent/apb_master_agent.sv(47) @ 0: uvm_test_top.env_h.agent_hm [apb_master_agent] Executing Connect-Phase in Master Agent
# UVM_INFO ../master_agent/apb_master_agent.sv(53) @ 0: uvm_test_top.env_h.agent_hm [apb_master_agent] Connect-Phase Complete in Master Agent
# UVM_INFO ../slave_agent/apb_slave_agent.sv(49) @ 0: uvm_test_top.env_h.agent_hs_0 [apb_slave_agent] Executing Connect-Phase in Slave Agent
# UVM_INFO ../slave_agent/apb_slave_agent.sv(55) @ 0: uvm_test_top.env_h.agent_hs_0 [apb_slave_agent] Connect-Phase Complete in Slave Agent
# UVM_INFO ../slave_agent/apb_slave_agent.sv(49) @ 0: uvm_test_top.env_h.agent_hs_1 [apb_slave_agent] Executing Connect-Phase in Slave Agent
# UVM_INFO ../slave_agent/apb_slave_agent.sv(55) @ 0: uvm_test_top.env_h.agent_hs_1 [apb_slave_agent] Connect-Phase Complete in Slave Agent
# UVM_INFO ../slave_agent/apb_slave_agent.sv(49) @ 0: uvm_test_top.env_h.agent_hs_2 [apb_slave_agent] Executing Connect-Phase in Slave Agent
# UVM_INFO ../slave_agent/apb_slave_agent.sv(55) @ 0: uvm_test_top.env_h.agent_hs_2 [apb_slave_agent] Connect-Phase Complete in Slave Agent
# UVM_INFO ../slave_agent/apb_slave_agent.sv(49) @ 0: uvm_test_top.env_h.agent_hs_3 [apb_slave_agent] Executing Connect-Phase in Slave Agent
# UVM_INFO ../slave_agent/apb_slave_agent.sv(55) @ 0: uvm_test_top.env_h.agent_hs_3 [apb_slave_agent] Connect-Phase Complete in Slave Agent
# UVM_INFO ../env/apb_env.sv(75) @ 0: uvm_test_top.env_h [apb_env] Connect-Phase complete in ENV
# UVM_INFO ../env/apb_env.sv(75) @ 0: uvm_test_top.env_h [apb_env] Connect-Phase complete in ENV
# UVM_INFO ../env/apb_env.sv(75) @ 0: uvm_test_top.env_h [apb_env] Connect-Phase complete in ENV
# UVM_INFO ../env/apb_env.sv(75) @ 0: uvm_test_top.env_h [apb_env] Connect-Phase complete in ENV
# UVM_INFO @ 0: reporter [UVMTOP] UVM testbench topology:
# ------------------------------------------------------------------
# Name                       Type                        Size  Value
# ------------------------------------------------------------------
# uvm_test_top               apb_base_test               -     @474 
#   env_h                    apb_env                     -     @493 
#     agent_hm               apb_master_agent            -     @528 
#       drv_hm               apb_master_drv              -     @602 
#         rsp_port           uvm_analysis_port           -     @617 
#         seq_item_port      uvm_seq_item_pull_port      -     @609 
#       mon_hm               apb_master_mon              -     @587 
#         mas_mon_ap         uvm_analysis_port           -     @594 
#       seqr_hm              apb_master_seqr             -     @625 
#         rsp_export         uvm_analysis_export         -     @632 
#         seq_item_export    uvm_seq_item_pull_imp       -     @726 
#         arbitration_queue  array                       0     -    
#         lock_queue         array                       0     -    
#         num_last_reqs      integral                    32    'd1  
#         num_last_rsps      integral                    32    'd1  
#     agent_hs_0             apb_slave_agent             -     @550 
#       drv_hs               apb_slave_drv               -     @773 
#         rsp_port           uvm_analysis_port           -     @788 
#         seq_item_port      uvm_seq_item_pull_port      -     @780 
#       mon_hs               apb_slave_mon               -     @758 
#         slv_mon_ap         uvm_analysis_port           -     @765 
#       seqr_hs              apb_slave_seqr              -     @796 
#         rsp_export         uvm_analysis_export         -     @803 
#         seq_item_export    uvm_seq_item_pull_imp       -     @897 
#         arbitration_queue  array                       0     -    
#         lock_queue         array                       0     -    
#         num_last_reqs      integral                    32    'd1  
#         num_last_rsps      integral                    32    'd1  
#     agent_hs_1             apb_slave_agent             -     @561 
#       drv_hs               apb_slave_drv               -     @931 
#         rsp_port           uvm_analysis_port           -     @946 
#         seq_item_port      uvm_seq_item_pull_port      -     @938 
#       mon_hs               apb_slave_mon               -     @916 
#         slv_mon_ap         uvm_analysis_port           -     @923 
#       seqr_hs              apb_slave_seqr              -     @954 
#         rsp_export         uvm_analysis_export         -     @961 
#         seq_item_export    uvm_seq_item_pull_imp       -     @1055
#         arbitration_queue  array                       0     -    
#         lock_queue         array                       0     -    
#         num_last_reqs      integral                    32    'd1  
#         num_last_rsps      integral                    32    'd1  
#     agent_hs_2             apb_slave_agent             -     @569 
#       drv_hs               apb_slave_drv               -     @1089
#         rsp_port           uvm_analysis_port           -     @1104
#         seq_item_port      uvm_seq_item_pull_port      -     @1096
#       mon_hs               apb_slave_mon               -     @1074
#         slv_mon_ap         uvm_analysis_port           -     @1081
#       seqr_hs              apb_slave_seqr              -     @1112
#         rsp_export         uvm_analysis_export         -     @1119
#         seq_item_export    uvm_seq_item_pull_imp       -     @1213
#         arbitration_queue  array                       0     -    
#         lock_queue         array                       0     -    
#         num_last_reqs      integral                    32    'd1  
#         num_last_rsps      integral                    32    'd1  
#     agent_hs_3             apb_slave_agent             -     @577 
#       drv_hs               apb_slave_drv               -     @1247
#         rsp_port           uvm_analysis_port           -     @1262
#         seq_item_port      uvm_seq_item_pull_port      -     @1254
#       mon_hs               apb_slave_mon               -     @1232
#         slv_mon_ap         uvm_analysis_port           -     @1239
#       seqr_hs              apb_slave_seqr              -     @1270
#         rsp_export         uvm_analysis_export         -     @1277
#         seq_item_export    uvm_seq_item_pull_imp       -     @1371
#         arbitration_queue  array                       0     -    
#         lock_queue         array                       0     -    
#         num_last_reqs      integral                    32    'd1  
#         num_last_rsps      integral                    32    'd1  
#     sb_h                   apb_sb                      -     @535 
#       mas_mon_fifo_h       uvm_tlm_analysis_fifo #(T)  -     @1388
#         analysis_export    uvm_analysis_imp            -     @1427
#         get_ap             uvm_analysis_port           -     @1419
#         get_peek_export    uvm_get_peek_imp            -     @1403
#         put_ap             uvm_analysis_port           -     @1411
#         put_export         uvm_put_imp                 -     @1395
# ------------------------------------------------------------------
# 
# UVM_INFO ../test/apb_base_test.sv(68) @ 0: uvm_test_top [apb_base_test] End-of-Elaboration complete in Test
# UVM_INFO ../slave_agent/apb_slave_config.sv(52) @ 0: reporter [apb_slave_config] Slave-0 | Range: 0x0–0x3f | is_active=UVM_ACTIVE | wait=0
# UVM_INFO ../slave_agent/apb_slave_config.sv(52) @ 0: reporter [apb_slave_config] Slave-1 | Range: 0x40–0x7f | is_active=UVM_ACTIVE | wait=0
# UVM_INFO ../slave_agent/apb_slave_config.sv(52) @ 0: reporter [apb_slave_config] Slave-2 | Range: 0x80–0xbf | is_active=UVM_ACTIVE | wait=0
# UVM_INFO ../slave_agent/apb_slave_config.sv(52) @ 0: reporter [apb_slave_config] Slave-3 | Range: 0xc0–0xff | is_active=UVM_ACTIVE | wait=0
# 
# ---------- Master Transaction : 1 ----------
# 
# UVM_INFO ../master_agent/apb_master_drv.sv(125) @ 40: uvm_test_top.env_h.agent_hm.drv_hm [apb_master_drv] PRESETn deasserted — master driver active
# UVM_INFO ../slave_agent/apb_slave_drv.sv(100) @ 40: uvm_test_top.env_h.agent_hs_0.drv_hs [apb_slave_drv] PRESETn deasserted — slave driver active
# UVM_INFO ../slave_agent/apb_slave_mon.sv(51) @ 40: uvm_test_top.env_h.agent_hs_0.mon_hs [apb_slave_mon] PRESETn deasserted — slave monitor active
# UVM_INFO ../slave_agent/apb_slave_drv.sv(100) @ 40: uvm_test_top.env_h.agent_hs_1.drv_hs [apb_slave_drv] PRESETn deasserted — slave driver active
# UVM_INFO ../slave_agent/apb_slave_mon.sv(51) @ 40: uvm_test_top.env_h.agent_hs_1.mon_hs [apb_slave_mon] PRESETn deasserted — slave monitor active
# UVM_INFO ../slave_agent/apb_slave_drv.sv(100) @ 40: uvm_test_top.env_h.agent_hs_2.drv_hs [apb_slave_drv] PRESETn deasserted — slave driver active
# UVM_INFO ../slave_agent/apb_slave_mon.sv(51) @ 40: uvm_test_top.env_h.agent_hs_2.mon_hs [apb_slave_mon] PRESETn deasserted — slave monitor active
# UVM_INFO ../slave_agent/apb_slave_drv.sv(100) @ 40: uvm_test_top.env_h.agent_hs_3.drv_hs [apb_slave_drv] PRESETn deasserted — slave driver active
# UVM_INFO ../slave_agent/apb_slave_mon.sv(51) @ 40: uvm_test_top.env_h.agent_hs_3.mon_hs [apb_slave_mon] PRESETn deasserted — slave monitor active
# UVM_INFO ../slave_agent/apb_slave_drv.sv(58) @ 50: uvm_test_top.env_h.agent_hs_0.drv_hs [apb_slave_drv] Transaction received at SLAVE-DRIVER =
# -----------------------------------------------------------------------------------------------------
# Name                           Type             Size  Value                                          
# -----------------------------------------------------------------------------------------------------
# trans_hs                       apb_slave_trans  -     @1467                                          
#   PADDR                        integral         8     'h0                                            
#   PWDATA                       integral         32    'h0                                            
#   PRDATA                       integral         32    'h0                                            
#   PSTRB                        integral         4     'h0                                            
#   PWRITE                       integral         1     'h0                                            
#   PENABLE                      integral         1     'h0                                            
#   PREADY                       integral         1     'h0                                            
#   PSLVERR                      integral         1     'h0                                            
#   PSEL                         da(integral)     0     -                                              
#   no_of_wait_cycles            integral         32    'd1                                            
#   wait_enable                  integral         1     1                                              
#   begin_time                   time             64    50                                             
#   depth                        int              32    'd2                                            
#   parent sequence (name)       string           9     seqs_hs_0                                      
#   parent sequence (full name)  string           47    uvm_test_top.env_h.agent_hs_0.seqr_hs.seqs_hs_0
#   sequencer                    string           37    uvm_test_top.env_h.agent_hs_0.seqr_hs          
# -----------------------------------------------------------------------------------------------------
# 
# UVM_INFO ../slave_agent/apb_slave_drv.sv(58) @ 50: uvm_test_top.env_h.agent_hs_1.drv_hs [apb_slave_drv] Transaction received at SLAVE-DRIVER =
# -----------------------------------------------------------------------------------------------------
# Name                           Type             Size  Value                                          
# -----------------------------------------------------------------------------------------------------
# trans_hs                       apb_slave_trans  -     @1463                                          
#   PADDR                        integral         8     'h0                                            
#   PWDATA                       integral         32    'h0                                            
#   PRDATA                       integral         32    'h0                                            
#   PSTRB                        integral         4     'h0                                            
#   PWRITE                       integral         1     'h0                                            
#   PENABLE                      integral         1     'h0                                            
#   PREADY                       integral         1     'h0                                            
#   PSLVERR                      integral         1     'h0                                            
#   PSEL                         da(integral)     0     -                                              
#   no_of_wait_cycles            integral         32    'd0                                            
#   wait_enable                  integral         1     'd0                                            
#   begin_time                   time             64    50                                             
#   depth                        int              32    'd2                                            
#   parent sequence (name)       string           9     seqs_hs_1                                      
#   parent sequence (full name)  string           47    uvm_test_top.env_h.agent_hs_1.seqr_hs.seqs_hs_1
#   sequencer                    string           37    uvm_test_top.env_h.agent_hs_1.seqr_hs          
# -----------------------------------------------------------------------------------------------------
# 
# UVM_INFO ../slave_agent/apb_slave_drv.sv(58) @ 50: uvm_test_top.env_h.agent_hs_2.drv_hs [apb_slave_drv] Transaction received at SLAVE-DRIVER =
# -----------------------------------------------------------------------------------------------------
# Name                           Type             Size  Value                                          
# -----------------------------------------------------------------------------------------------------
# trans_hs                       apb_slave_trans  -     @1459                                          
#   PADDR                        integral         8     'h0                                            
#   PWDATA                       integral         32    'h0                                            
#   PRDATA                       integral         32    'h0                                            
#   PSTRB                        integral         4     'h0                                            
#   PWRITE                       integral         1     'h0                                            
#   PENABLE                      integral         1     'h0                                            
#   PREADY                       integral         1     'h0                                            
#   PSLVERR                      integral         1     'h0                                            
#   PSEL                         da(integral)     0     -                                              
#   no_of_wait_cycles            integral         32    'd0                                            
#   wait_enable                  integral         1     'd0                                            
#   begin_time                   time             64    50                                             
#   depth                        int              32    'd2                                            
#   parent sequence (name)       string           9     seqs_hs_2                                      
#   parent sequence (full name)  string           47    uvm_test_top.env_h.agent_hs_2.seqr_hs.seqs_hs_2
#   sequencer                    string           37    uvm_test_top.env_h.agent_hs_2.seqr_hs          
# -----------------------------------------------------------------------------------------------------
# 
# UVM_INFO ../slave_agent/apb_slave_drv.sv(58) @ 50: uvm_test_top.env_h.agent_hs_3.drv_hs [apb_slave_drv] Transaction received at SLAVE-DRIVER =
# -----------------------------------------------------------------------------------------------------
# Name                           Type             Size  Value                                          
# -----------------------------------------------------------------------------------------------------
# trans_hs                       apb_slave_trans  -     @1455                                          
#   PADDR                        integral         8     'h0                                            
#   PWDATA                       integral         32    'h0                                            
#   PRDATA                       integral         32    'h0                                            
#   PSTRB                        integral         4     'h0                                            
#   PWRITE                       integral         1     'h0                                            
#   PENABLE                      integral         1     'h0                                            
#   PREADY                       integral         1     'h0                                            
#   PSLVERR                      integral         1     'h0                                            
#   PSEL                         da(integral)     0     -                                              
#   no_of_wait_cycles            integral         32    'd0                                            
#   wait_enable                  integral         1     'd0                                            
#   begin_time                   time             64    50                                             
#   depth                        int              32    'd2                                            
#   parent sequence (name)       string           9     seqs_hs_3                                      
#   parent sequence (full name)  string           47    uvm_test_top.env_h.agent_hs_3.seqr_hs.seqs_hs_3
#   sequencer                    string           37    uvm_test_top.env_h.agent_hs_3.seqr_hs          
# -----------------------------------------------------------------------------------------------------
# 
# UVM_INFO ../master_agent/apb_master_drv.sv(170) @ 50: uvm_test_top.env_h.agent_hm.drv_hm [apb_master_drv] [MASTER-TRANS-1] Data Received at MASTER-DRIVER =
# --------------------------------------------------------------------------------------------------
# Name                           Type              Size  Value                                      
# --------------------------------------------------------------------------------------------------
# trans_hm                       apb_master_trans  -     @1471                                      
#   PWRITE                       integral          1     'h1                                        
#   PADDR                        integral          8     'hc1                                       
#   PWDATA                       integral          32    'heb203ca4                                 
#   PSTRB                        integral          4     'hf                                        
#   PENABLE                      integral          1     'h0                                        
#   PSEL                         da(integral)      0     -                                          
#   trans_size                   transfer_size_e   2     WORD                                       
#   PREADY                       integral          1     'h0                                        
#   PRDATA                       integral          32    'h0                                        
#   PSLVERR                      integral          1     'h0                                        
#   begin_time                   time              64    50                                         
#   depth                        int               32    'd2                                        
#   parent sequence (name)       string            7     seqs_hm                                    
#   parent sequence (full name)  string            43    uvm_test_top.env_h.agent_hm.seqr_hm.seqs_hm
#   sequencer                    string            35    uvm_test_top.env_h.agent_hm.seqr_hm        
#   Direction                    string            5     WRITE                                      
#   Trans Size                   string            4     WORD                                       
# --------------------------------------------------------------------------------------------------
# 
# UVM_INFO ../slave_agent/apb_slave_drv.sv(143) @ 90: uvm_test_top.env_h.agent_hs_3.drv_hs [apb_slave_drv] WRITE | ADDR=0xc1 | DATA=0xeb203ca4 | STRB=0xf
# UVM_INFO ../master_agent/apb_master_mon.sv(74) @ 91: uvm_test_top.env_h.agent_hm.mon_hm [apb_master_mon] Data Sent from MASTER-MONITOR to SCOREBOARD = 
# -------------------------------------------
# Name          Type              Size  Value
# -------------------------------------------
# trans_hm      apb_master_trans  -     @1451
#   PWRITE      integral          1     'h0  
#   PADDR       integral          8     'h0  
#   PWDATA      integral          32    'h0  
#   PSTRB       integral          4     'h0  
#   PENABLE     integral          1     'h1  
#   PSEL        da(integral)      0     -    
#   trans_size  transfer_size_e   2     BYTE 
#   PREADY      integral          1     'h1  
#   PRDATA      integral          32    'h0  
#   PSLVERR     integral          1     'h0  
#   Direction   string            4     READ 
#   Trans Size  string            4     BYTE 
# -------------------------------------------
# 
# UVM_INFO ../master_agent/apb_master_mon.sv(43) @ 91: uvm_test_top.env_h.agent_hm.mon_hm [apb_master_mon] Data Received at MASTER-MONITOR from SLAVE-DRIVER = 
# -------------------------------------------
# Name          Type              Size  Value
# -------------------------------------------
# trans_hm      apb_master_trans  -     @1451
#   PWRITE      integral          1     'h0  
#   PADDR       integral          8     'h0  
#   PWDATA      integral          32    'h0  
#   PSTRB       integral          4     'h0  
#   PENABLE     integral          1     'h1  
#   PSEL        da(integral)      0     -    
#   trans_size  transfer_size_e   2     BYTE 
#   PREADY      integral          1     'h1  
#   PRDATA      integral          32    'h0  
#   PSLVERR     integral          1     'h0  
#   Direction   string            4     READ 
#   Trans Size  string            4     BYTE 
# -------------------------------------------
# 
# UVM_INFO ../master_agent/apb_master_drv.sv(180) @ 110: uvm_test_top.env_h.agent_hm.drv_hm [apb_master_drv] [MASTER-TRANS-1] Transfer Complete — MASTER-DRIVER
# --------------------------------------------------------------------------------------------------
# Name                           Type              Size  Value                                      
# --------------------------------------------------------------------------------------------------
# trans_hm                       apb_master_trans  -     @1471                                      
#   PWRITE                       integral          1     'h1                                        
#   PADDR                        integral          8     'hc1                                       
#   PWDATA                       integral          32    'heb203ca4                                 
#   PSTRB                        integral          4     'hf                                        
#   PENABLE                      integral          1     'h0                                        
#   PSEL                         da(integral)      4     -                                          
#     [0]                        integral          1     'h0                                        
#     [1]                        integral          1     'h0                                        
#     [2]                        integral          1     'h0                                        
#     [3]                        integral          1     'h1                                        
#   trans_size                   transfer_size_e   2     WORD                                       
#   PREADY                       integral          1     'h0                                        
#   PRDATA                       integral          32    'h0                                        
#   PSLVERR                      integral          1     'h0                                        
#   begin_time                   time              64    50                                         
#   depth                        int               32    'd2                                        
#   parent sequence (name)       string            7     seqs_hm                                    
#   parent sequence (full name)  string            43    uvm_test_top.env_h.agent_hm.seqr_hm.seqs_hm
#   sequencer                    string            35    uvm_test_top.env_h.agent_hm.seqr_hm        
#   Direction                    string            5     WRITE                                      
#   Trans Size                   string            4     WORD                                       
# --------------------------------------------------------------------------------------------------
# 
# UVM_INFO ../slave_agent/apb_slave_drv.sv(67) @ 110: uvm_test_top.env_h.agent_hs_3.drv_hs [apb_slave_drv] Transaction complete at SLAVE-DRIVER =
# -----------------------------------------------------------------------------------------------------
# Name                           Type             Size  Value                                          
# -----------------------------------------------------------------------------------------------------
# trans_hs                       apb_slave_trans  -     @1455                                          
#   PADDR                        integral         8     'h0                                            
#   PWDATA                       integral         32    'h0                                            
#   PRDATA                       integral         32    'h0                                            
#   PSTRB                        integral         4     'h0                                            
#   PWRITE                       integral         1     'h0                                            
#   PENABLE                      integral         1     'h0                                            
#   PREADY                       integral         1     'h0                                            
#   PSLVERR                      integral         1     'h0                                            
#   PSEL                         da(integral)     0     -                                              
#   no_of_wait_cycles            integral         32    'd0                                            
#   wait_enable                  integral         1     'd0                                            
#   begin_time                   time             64    50                                             
#   depth                        int              32    'd2                                            
#   parent sequence (name)       string           9     seqs_hs_3                                      
#   parent sequence (full name)  string           47    uvm_test_top.env_h.agent_hs_3.seqr_hs.seqs_hs_3
#   sequencer                    string           37    uvm_test_top.env_h.agent_hs_3.seqr_hs          
# -----------------------------------------------------------------------------------------------------
# 
# UVM_INFO ../slave_agent/apb_slave_mon.sv(121) @ 110: uvm_test_top.env_h.agent_hs_3.mon_hs [apb_slave_mon] Slave-3 WRITE sampled =
# ------------------------------------------------------
# Name                 Type             Size  Value     
# ------------------------------------------------------
# trans_hs             apb_slave_trans  -     @1607     
#   PADDR              integral         8     'hc1      
#   PWDATA             integral         32    'heb203ca4
#   PRDATA             integral         32    'h0       
#   PSTRB              integral         4     'hf       
#   PWRITE             integral         1     'h1       
#   PENABLE            integral         1     'h1       
#   PREADY             integral         1     'h1       
#   PSLVERR            integral         1     'h0       
#   PSEL               da(integral)     0     -         
#   no_of_wait_cycles  integral         32    'd0       
#   wait_enable        integral         1     'd0       
# ------------------------------------------------------
# 
# UVM_INFO ../slave_agent/apb_slave_mon.sv(130) @ 110: uvm_test_top.env_h.agent_hs_3.mon_hs [apb_slave_mon] Slave-3 transaction sent to scoreboard
# UVM_INFO ../master_agent/apb_master_seqs.sv(33) @ 110: uvm_test_top.env_h.agent_hm.seqr_hm@@seqs_hm [apb_master_seqs] Transaction-1 sent from MASTER SEQS =
# --------------------------------------------------------------------------------------------------
# Name                           Type              Size  Value                                      
# --------------------------------------------------------------------------------------------------
# trans_hm                       apb_master_trans  -     @1471                                      
#   PWRITE                       integral          1     'h1                                        
#   PADDR                        integral          8     'hc1                                       
#   PWDATA                       integral          32    'heb203ca4                                 
#   PSTRB                        integral          4     'hf                                        
#   PENABLE                      integral          1     'h0                                        
#   PSEL                         da(integral)      4     -                                          
#     [0]                        integral          1     'h0                                        
#     [1]                        integral          1     'h0                                        
#     [2]                        integral          1     'h0                                        
#     [3]                        integral          1     'h1                                        
#   trans_size                   transfer_size_e   2     WORD                                       
#   PREADY                       integral          1     'h0                                        
#   PRDATA                       integral          32    'h0                                        
#   PSLVERR                      integral          1     'h0                                        
#   begin_time                   time              64    50                                         
#   end_time                     time              64    110                                        
#   depth                        int               32    'd2                                        
#   parent sequence (name)       string            7     seqs_hm                                    
#   parent sequence (full name)  string            43    uvm_test_top.env_h.agent_hm.seqr_hm.seqs_hm
#   sequencer                    string            35    uvm_test_top.env_h.agent_hm.seqr_hm        
#   Direction                    string            5     WRITE                                      
#   Trans Size                   string            4     WORD                                       
# --------------------------------------------------------------------------------------------------
# 
# 
# ---------- Master Transaction : 2 ----------
# 
# UVM_INFO ../slave_agent/apb_slave_drv.sv(58) @ 110: uvm_test_top.env_h.agent_hs_3.drv_hs [apb_slave_drv] Transaction received at SLAVE-DRIVER =
# -----------------------------------------------------------------------------------------------------
# Name                           Type             Size  Value                                          
# -----------------------------------------------------------------------------------------------------
# trans_hs                       apb_slave_trans  -     @1621                                          
#   PADDR                        integral         8     'h0                                            
#   PWDATA                       integral         32    'h0                                            
#   PRDATA                       integral         32    'h0                                            
#   PSTRB                        integral         4     'h0                                            
#   PWRITE                       integral         1     'h0                                            
#   PENABLE                      integral         1     'h0                                            
#   PREADY                       integral         1     'h0                                            
#   PSLVERR                      integral         1     'h0                                            
#   PSEL                         da(integral)     0     -                                              
#   no_of_wait_cycles            integral         32    'd0                                            
#   wait_enable                  integral         1     'd0                                            
#   begin_time                   time             64    110                                            
#   depth                        int              32    'd2                                            
#   parent sequence (name)       string           9     seqs_hs_3                                      
#   parent sequence (full name)  string           47    uvm_test_top.env_h.agent_hs_3.seqr_hs.seqs_hs_3
#   sequencer                    string           37    uvm_test_top.env_h.agent_hs_3.seqr_hs          
# -----------------------------------------------------------------------------------------------------
# 
# UVM_INFO ../master_agent/apb_master_drv.sv(170) @ 110: uvm_test_top.env_h.agent_hm.drv_hm [apb_master_drv] [MASTER-TRANS-2] Data Received at MASTER-DRIVER =
# --------------------------------------------------------------------------------------------------
# Name                           Type              Size  Value                                      
# --------------------------------------------------------------------------------------------------
# trans_hm                       apb_master_trans  -     @1616                                      
#   PWRITE                       integral          1     'h1                                        
#   PADDR                        integral          8     'h2d                                       
#   PWDATA                       integral          32    'h96074a7d                                 
#   PSTRB                        integral          4     'hf                                        
#   PENABLE                      integral          1     'h0                                        
#   PSEL                         da(integral)      0     -                                          
#   trans_size                   transfer_size_e   2     WORD                                       
#   PREADY                       integral          1     'h0                                        
#   PRDATA                       integral          32    'h0                                        
#   PSLVERR                      integral          1     'h0                                        
#   begin_time                   time              64    110                                        
#   depth                        int               32    'd2                                        
#   parent sequence (name)       string            7     seqs_hm                                    
#   parent sequence (full name)  string            43    uvm_test_top.env_h.agent_hm.seqr_hm.seqs_hm
#   sequencer                    string            35    uvm_test_top.env_h.agent_hm.seqr_hm        
#   Direction                    string            5     WRITE                                      
#   Trans Size                   string            4     WORD                                       
# --------------------------------------------------------------------------------------------------
# 
# UVM_INFO ../slave_agent/apb_slave_drv.sv(143) @ 170: uvm_test_top.env_h.agent_hs_0.drv_hs [apb_slave_drv] WRITE | ADDR=0x2d | DATA=0x96074a7d | STRB=0xf
# UVM_INFO ../master_agent/apb_master_mon.sv(74) @ 171: uvm_test_top.env_h.agent_hm.mon_hm [apb_master_mon] Data Sent from MASTER-MONITOR to SCOREBOARD = 
# ------------------------------------------------
# Name          Type              Size  Value     
# ------------------------------------------------
# trans_hm      apb_master_trans  -     @1451     
#   PWRITE      integral          1     'h1       
#   PADDR       integral          8     'h2d      
#   PWDATA      integral          32    'h96074a7d
#   PSTRB       integral          4     'h0       
#   PENABLE     integral          1     'h1       
#   PSEL        da(integral)      0     -         
#   trans_size  transfer_size_e   2     BYTE      
#   PREADY      integral          1     'h1       
#   PRDATA      integral          32    'h0       
#   PSLVERR     integral          1     'h0       
#   Direction   string            5     WRITE     
#   Trans Size  string            4     BYTE      
# ------------------------------------------------
# 
# UVM_INFO ../master_agent/apb_master_mon.sv(43) @ 171: uvm_test_top.env_h.agent_hm.mon_hm [apb_master_mon] Data Received at MASTER-MONITOR from SLAVE-DRIVER = 
# ------------------------------------------------
# Name          Type              Size  Value     
# ------------------------------------------------
# trans_hm      apb_master_trans  -     @1451     
#   PWRITE      integral          1     'h1       
#   PADDR       integral          8     'h2d      
#   PWDATA      integral          32    'h96074a7d
#   PSTRB       integral          4     'h0       
#   PENABLE     integral          1     'h1       
#   PSEL        da(integral)      0     -         
#   trans_size  transfer_size_e   2     BYTE      
#   PREADY      integral          1     'h1       
#   PRDATA      integral          32    'h0       
#   PSLVERR     integral          1     'h0       
#   Direction   string            5     WRITE     
#   Trans Size  string            4     BYTE      
# ------------------------------------------------
# 
# UVM_INFO ../master_agent/apb_master_drv.sv(180) @ 190: uvm_test_top.env_h.agent_hm.drv_hm [apb_master_drv] [MASTER-TRANS-2] Transfer Complete — MASTER-DRIVER
# --------------------------------------------------------------------------------------------------
# Name                           Type              Size  Value                                      
# --------------------------------------------------------------------------------------------------
# trans_hm                       apb_master_trans  -     @1616                                      
#   PWRITE                       integral          1     'h1                                        
#   PADDR                        integral          8     'h2d                                       
#   PWDATA                       integral          32    'h96074a7d                                 
#   PSTRB                        integral          4     'hf                                        
#   PENABLE                      integral          1     'h0                                        
#   PSEL                         da(integral)      4     -                                          
#     [0]                        integral          1     'h1                                        
#     [1]                        integral          1     'h0                                        
#     [2]                        integral          1     'h0                                        
#     [3]                        integral          1     'h0                                        
#   trans_size                   transfer_size_e   2     WORD                                       
#   PREADY                       integral          1     'h0                                        
#   PRDATA                       integral          32    'h0                                        
#   PSLVERR                      integral          1     'h0                                        
#   begin_time                   time              64    110                                        
#   depth                        int               32    'd2                                        
#   parent sequence (name)       string            7     seqs_hm                                    
#   parent sequence (full name)  string            43    uvm_test_top.env_h.agent_hm.seqr_hm.seqs_hm
#   sequencer                    string            35    uvm_test_top.env_h.agent_hm.seqr_hm        
#   Direction                    string            5     WRITE                                      
#   Trans Size                   string            4     WORD                                       
# --------------------------------------------------------------------------------------------------
# 
# UVM_INFO ../slave_agent/apb_slave_drv.sv(67) @ 190: uvm_test_top.env_h.agent_hs_0.drv_hs [apb_slave_drv] Transaction complete at SLAVE-DRIVER =
# -----------------------------------------------------------------------------------------------------
# Name                           Type             Size  Value                                          
# -----------------------------------------------------------------------------------------------------
# trans_hs                       apb_slave_trans  -     @1467                                          
#   PADDR                        integral         8     'h0                                            
#   PWDATA                       integral         32    'h0                                            
#   PRDATA                       integral         32    'h0                                            
#   PSTRB                        integral         4     'h0                                            
#   PWRITE                       integral         1     'h0                                            
#   PENABLE                      integral         1     'h0                                            
#   PREADY                       integral         1     'h0                                            
#   PSLVERR                      integral         1     'h0                                            
#   PSEL                         da(integral)     0     -                                              
#   no_of_wait_cycles            integral         32    'd1                                            
#   wait_enable                  integral         1     1                                              
#   begin_time                   time             64    50                                             
#   depth                        int              32    'd2                                            
#   parent sequence (name)       string           9     seqs_hs_0                                      
#   parent sequence (full name)  string           47    uvm_test_top.env_h.agent_hs_0.seqr_hs.seqs_hs_0
#   sequencer                    string           37    uvm_test_top.env_h.agent_hs_0.seqr_hs          
# -----------------------------------------------------------------------------------------------------
# 
# UVM_INFO ../slave_agent/apb_slave_mon.sv(121) @ 190: uvm_test_top.env_h.agent_hs_0.mon_hs [apb_slave_mon] Slave-0 WRITE sampled =
# ------------------------------------------------------
# Name                 Type             Size  Value     
# ------------------------------------------------------
# trans_hs             apb_slave_trans  -     @1595     
#   PADDR              integral         8     'h2d      
#   PWDATA             integral         32    'h96074a7d
#   PRDATA             integral         32    'h0       
#   PSTRB              integral         4     'hf       
#   PWRITE             integral         1     'h1       
#   PENABLE            integral         1     'h1       
#   PREADY             integral         1     'h1       
#   PSLVERR            integral         1     'h0       
#   PSEL               da(integral)     0     -         
#   no_of_wait_cycles  integral         32    'd0       
#   wait_enable        integral         1     'd0       
# ------------------------------------------------------
# 
# UVM_INFO ../slave_agent/apb_slave_mon.sv(130) @ 190: uvm_test_top.env_h.agent_hs_0.mon_hs [apb_slave_mon] Slave-0 transaction sent to scoreboard
# UVM_INFO ../master_agent/apb_master_seqs.sv(33) @ 190: uvm_test_top.env_h.agent_hm.seqr_hm@@seqs_hm [apb_master_seqs] Transaction-2 sent from MASTER SEQS =
# --------------------------------------------------------------------------------------------------
# Name                           Type              Size  Value                                      
# --------------------------------------------------------------------------------------------------
# trans_hm                       apb_master_trans  -     @1616                                      
#   PWRITE                       integral          1     'h1                                        
#   PADDR                        integral          8     'h2d                                       
#   PWDATA                       integral          32    'h96074a7d                                 
#   PSTRB                        integral          4     'hf                                        
#   PENABLE                      integral          1     'h0                                        
#   PSEL                         da(integral)      4     -                                          
#     [0]                        integral          1     'h1                                        
#     [1]                        integral          1     'h0                                        
#     [2]                        integral          1     'h0                                        
#     [3]                        integral          1     'h0                                        
#   trans_size                   transfer_size_e   2     WORD                                       
#   PREADY                       integral          1     'h0                                        
#   PRDATA                       integral          32    'h0                                        
#   PSLVERR                      integral          1     'h0                                        
#   begin_time                   time              64    110                                        
#   end_time                     time              64    190                                        
#   depth                        int               32    'd2                                        
#   parent sequence (name)       string            7     seqs_hm                                    
#   parent sequence (full name)  string            43    uvm_test_top.env_h.agent_hm.seqr_hm.seqs_hm
#   sequencer                    string            35    uvm_test_top.env_h.agent_hm.seqr_hm        
#   Direction                    string            5     WRITE                                      
#   Trans Size                   string            4     WORD                                       
# --------------------------------------------------------------------------------------------------
# 
# 
# ---------- Master Transaction : 3 ----------
# 
# UVM_INFO ../slave_agent/apb_slave_drv.sv(58) @ 190: uvm_test_top.env_h.agent_hs_0.drv_hs [apb_slave_drv] Transaction received at SLAVE-DRIVER =
# -----------------------------------------------------------------------------------------------------
# Name                           Type             Size  Value                                          
# -----------------------------------------------------------------------------------------------------
# trans_hs                       apb_slave_trans  -     @1634                                          
#   PADDR                        integral         8     'h0                                            
#   PWDATA                       integral         32    'h0                                            
#   PRDATA                       integral         32    'h0                                            
#   PSTRB                        integral         4     'h0                                            
#   PWRITE                       integral         1     'h0                                            
#   PENABLE                      integral         1     'h0                                            
#   PREADY                       integral         1     'h0                                            
#   PSLVERR                      integral         1     'h0                                            
#   PSEL                         da(integral)     0     -                                              
#   no_of_wait_cycles            integral         32    'd0                                            
#   wait_enable                  integral         1     'd0                                            
#   begin_time                   time             64    190                                            
#   depth                        int              32    'd2                                            
#   parent sequence (name)       string           9     seqs_hs_0                                      
#   parent sequence (full name)  string           47    uvm_test_top.env_h.agent_hs_0.seqr_hs.seqs_hs_0
#   sequencer                    string           37    uvm_test_top.env_h.agent_hs_0.seqr_hs          
# -----------------------------------------------------------------------------------------------------
# 
# UVM_INFO ../master_agent/apb_master_drv.sv(170) @ 190: uvm_test_top.env_h.agent_hm.drv_hm [apb_master_drv] [MASTER-TRANS-3] Data Received at MASTER-DRIVER =
# --------------------------------------------------------------------------------------------------
# Name                           Type              Size  Value                                      
# --------------------------------------------------------------------------------------------------
# trans_hm                       apb_master_trans  -     @1629                                      
#   PWRITE                       integral          1     'h1                                        
#   PADDR                        integral          8     'h70                                       
#   PWDATA                       integral          32    'h5cfbd0a8                                 
#   PSTRB                        integral          4     'h3                                        
#   PENABLE                      integral          1     'h0                                        
#   PSEL                         da(integral)      0     -                                          
#   trans_size                   transfer_size_e   2     HALFWORD                                   
#   PREADY                       integral          1     'h0                                        
#   PRDATA                       integral          32    'h0                                        
#   PSLVERR                      integral          1     'h0                                        
#   begin_time                   time              64    190                                        
#   depth                        int               32    'd2                                        
#   parent sequence (name)       string            7     seqs_hm                                    
#   parent sequence (full name)  string            43    uvm_test_top.env_h.agent_hm.seqr_hm.seqs_hm
#   sequencer                    string            35    uvm_test_top.env_h.agent_hm.seqr_hm        
#   Direction                    string            5     WRITE                                      
#   Trans Size                   string            8     HALFWORD                                   
# --------------------------------------------------------------------------------------------------
# 
# UVM_INFO ../slave_agent/apb_slave_drv.sv(143) @ 230: uvm_test_top.env_h.agent_hs_1.drv_hs [apb_slave_drv] WRITE | ADDR=0x70 | DATA=0xd0a8 | STRB=0x3
# UVM_INFO ../master_agent/apb_master_mon.sv(74) @ 231: uvm_test_top.env_h.agent_hm.mon_hm [apb_master_mon] Data Sent from MASTER-MONITOR to SCOREBOARD = 
# ------------------------------------------------
# Name          Type              Size  Value     
# ------------------------------------------------
# trans_hm      apb_master_trans  -     @1451     
#   PWRITE      integral          1     'h1       
#   PADDR       integral          8     'h70      
#   PWDATA      integral          32    'h5cfbd0a8
#   PSTRB       integral          4     'h0       
#   PENABLE     integral          1     'h1       
#   PSEL        da(integral)      0     -         
#   trans_size  transfer_size_e   2     BYTE      
#   PREADY      integral          1     'h1       
#   PRDATA      integral          32    'h0       
#   PSLVERR     integral          1     'h0       
#   Direction   string            5     WRITE     
#   Trans Size  string            4     BYTE      
# ------------------------------------------------
# 
# UVM_INFO ../master_agent/apb_master_mon.sv(43) @ 231: uvm_test_top.env_h.agent_hm.mon_hm [apb_master_mon] Data Received at MASTER-MONITOR from SLAVE-DRIVER = 
# ------------------------------------------------
# Name          Type              Size  Value     
# ------------------------------------------------
# trans_hm      apb_master_trans  -     @1451     
#   PWRITE      integral          1     'h1       
#   PADDR       integral          8     'h70      
#   PWDATA      integral          32    'h5cfbd0a8
#   PSTRB       integral          4     'h0       
#   PENABLE     integral          1     'h1       
#   PSEL        da(integral)      0     -         
#   trans_size  transfer_size_e   2     BYTE      
#   PREADY      integral          1     'h1       
#   PRDATA      integral          32    'h0       
#   PSLVERR     integral          1     'h0       
#   Direction   string            5     WRITE     
#   Trans Size  string            4     BYTE      
# ------------------------------------------------
# 
# UVM_INFO ../master_agent/apb_master_drv.sv(180) @ 250: uvm_test_top.env_h.agent_hm.drv_hm [apb_master_drv] [MASTER-TRANS-3] Transfer Complete — MASTER-DRIVER
# --------------------------------------------------------------------------------------------------
# Name                           Type              Size  Value                                      
# --------------------------------------------------------------------------------------------------
# trans_hm                       apb_master_trans  -     @1629                                      
#   PWRITE                       integral          1     'h1                                        
#   PADDR                        integral          8     'h70                                       
#   PWDATA                       integral          32    'h5cfbd0a8                                 
#   PSTRB                        integral          4     'h3                                        
#   PENABLE                      integral          1     'h0                                        
#   PSEL                         da(integral)      4     -                                          
#     [0]                        integral          1     'h0                                        
#     [1]                        integral          1     'h1                                        
#     [2]                        integral          1     'h0                                        
#     [3]                        integral          1     'h0                                        
#   trans_size                   transfer_size_e   2     HALFWORD                                   
#   PREADY                       integral          1     'h0                                        
#   PRDATA                       integral          32    'h0                                        
#   PSLVERR                      integral          1     'h0                                        
#   begin_time                   time              64    190                                        
#   depth                        int               32    'd2                                        
#   parent sequence (name)       string            7     seqs_hm                                    
#   parent sequence (full name)  string            43    uvm_test_top.env_h.agent_hm.seqr_hm.seqs_hm
#   sequencer                    string            35    uvm_test_top.env_h.agent_hm.seqr_hm        
#   Direction                    string            5     WRITE                                      
#   Trans Size                   string            8     HALFWORD                                   
# --------------------------------------------------------------------------------------------------
# 
# UVM_INFO ../slave_agent/apb_slave_drv.sv(67) @ 250: uvm_test_top.env_h.agent_hs_1.drv_hs [apb_slave_drv] Transaction complete at SLAVE-DRIVER =
# -----------------------------------------------------------------------------------------------------
# Name                           Type             Size  Value                                          
# -----------------------------------------------------------------------------------------------------
# trans_hs                       apb_slave_trans  -     @1463                                          
#   PADDR                        integral         8     'h0                                            
#   PWDATA                       integral         32    'h0                                            
#   PRDATA                       integral         32    'h0                                            
#   PSTRB                        integral         4     'h0                                            
#   PWRITE                       integral         1     'h0                                            
#   PENABLE                      integral         1     'h0                                            
#   PREADY                       integral         1     'h0                                            
#   PSLVERR                      integral         1     'h0                                            
#   PSEL                         da(integral)     0     -                                              
#   no_of_wait_cycles            integral         32    'd0                                            
#   wait_enable                  integral         1     'd0                                            
#   begin_time                   time             64    50                                             
#   depth                        int              32    'd2                                            
#   parent sequence (name)       string           9     seqs_hs_1                                      
#   parent sequence (full name)  string           47    uvm_test_top.env_h.agent_hs_1.seqr_hs.seqs_hs_1
#   sequencer                    string           37    uvm_test_top.env_h.agent_hs_1.seqr_hs          
# -----------------------------------------------------------------------------------------------------
# 
# UVM_INFO ../slave_agent/apb_slave_mon.sv(121) @ 250: uvm_test_top.env_h.agent_hs_1.mon_hs [apb_slave_mon] Slave-1 WRITE sampled =
# ------------------------------------------------------
# Name                 Type             Size  Value     
# ------------------------------------------------------
# trans_hs             apb_slave_trans  -     @1599     
#   PADDR              integral         8     'h70      
#   PWDATA             integral         32    'h5cfbd0a8
#   PRDATA             integral         32    'h0       
#   PSTRB              integral         4     'h3       
#   PWRITE             integral         1     'h1       
#   PENABLE            integral         1     'h1       
#   PREADY             integral         1     'h1       
#   PSLVERR            integral         1     'h0       
#   PSEL               da(integral)     0     -         
#   no_of_wait_cycles  integral         32    'd0       
#   wait_enable        integral         1     'd0       
# ------------------------------------------------------
# 
# UVM_INFO ../slave_agent/apb_slave_mon.sv(130) @ 250: uvm_test_top.env_h.agent_hs_1.mon_hs [apb_slave_mon] Slave-1 transaction sent to scoreboard
# UVM_INFO ../master_agent/apb_master_seqs.sv(33) @ 250: uvm_test_top.env_h.agent_hm.seqr_hm@@seqs_hm [apb_master_seqs] Transaction-3 sent from MASTER SEQS =
# --------------------------------------------------------------------------------------------------
# Name                           Type              Size  Value                                      
# --------------------------------------------------------------------------------------------------
# trans_hm                       apb_master_trans  -     @1629                                      
#   PWRITE                       integral          1     'h1                                        
#   PADDR                        integral          8     'h70                                       
#   PWDATA                       integral          32    'h5cfbd0a8                                 
#   PSTRB                        integral          4     'h3                                        
#   PENABLE                      integral          1     'h0                                        
#   PSEL                         da(integral)      4     -                                          
#     [0]                        integral          1     'h0                                        
#     [1]                        integral          1     'h1                                        
#     [2]                        integral          1     'h0                                        
#     [3]                        integral          1     'h0                                        
#   trans_size                   transfer_size_e   2     HALFWORD                                   
#   PREADY                       integral          1     'h0                                        
#   PRDATA                       integral          32    'h0                                        
#   PSLVERR                      integral          1     'h0                                        
#   begin_time                   time              64    190                                        
#   end_time                     time              64    250                                        
#   depth                        int               32    'd2                                        
#   parent sequence (name)       string            7     seqs_hm                                    
#   parent sequence (full name)  string            43    uvm_test_top.env_h.agent_hm.seqr_hm.seqs_hm
#   sequencer                    string            35    uvm_test_top.env_h.agent_hm.seqr_hm        
#   Direction                    string            5     WRITE                                      
#   Trans Size                   string            8     HALFWORD                                   
# --------------------------------------------------------------------------------------------------
# 
# 
# ---------- Master Transaction : 4 ----------
# 
# UVM_INFO ../slave_agent/apb_slave_drv.sv(58) @ 250: uvm_test_top.env_h.agent_hs_1.drv_hs [apb_slave_drv] Transaction received at SLAVE-DRIVER =
# -----------------------------------------------------------------------------------------------------
# Name                           Type             Size  Value                                          
# -----------------------------------------------------------------------------------------------------
# trans_hs                       apb_slave_trans  -     @1647                                          
#   PADDR                        integral         8     'h0                                            
#   PWDATA                       integral         32    'h0                                            
#   PRDATA                       integral         32    'h0                                            
#   PSTRB                        integral         4     'h0                                            
#   PWRITE                       integral         1     'h0                                            
#   PENABLE                      integral         1     'h0                                            
#   PREADY                       integral         1     'h0                                            
#   PSLVERR                      integral         1     'h0                                            
#   PSEL                         da(integral)     0     -                                              
#   no_of_wait_cycles            integral         32    'd0                                            
#   wait_enable                  integral         1     'd0                                            
#   begin_time                   time             64    250                                            
#   depth                        int              32    'd2                                            
#   parent sequence (name)       string           9     seqs_hs_1                                      
#   parent sequence (full name)  string           47    uvm_test_top.env_h.agent_hs_1.seqr_hs.seqs_hs_1
#   sequencer                    string           37    uvm_test_top.env_h.agent_hs_1.seqr_hs          
# -----------------------------------------------------------------------------------------------------
# 
# UVM_INFO ../master_agent/apb_master_drv.sv(170) @ 250: uvm_test_top.env_h.agent_hm.drv_hm [apb_master_drv] [MASTER-TRANS-4] Data Received at MASTER-DRIVER =
# --------------------------------------------------------------------------------------------------
# Name                           Type              Size  Value                                      
# --------------------------------------------------------------------------------------------------
# trans_hm                       apb_master_trans  -     @1642                                      
#   PWRITE                       integral          1     'h0                                        
#   PADDR                        integral          8     'h21                                       
#   PWDATA                       integral          32    'h0                                        
#   PSTRB                        integral          4     'h0                                        
#   PENABLE                      integral          1     'h0                                        
#   PSEL                         da(integral)      0     -                                          
#   trans_size                   transfer_size_e   2     WORD                                       
#   PREADY                       integral          1     'h0                                        
#   PRDATA                       integral          32    'h0                                        
#   PSLVERR                      integral          1     'h0                                        
#   begin_time                   time              64    250                                        
#   depth                        int               32    'd2                                        
#   parent sequence (name)       string            7     seqs_hm                                    
#   parent sequence (full name)  string            43    uvm_test_top.env_h.agent_hm.seqr_hm.seqs_hm
#   sequencer                    string            35    uvm_test_top.env_h.agent_hm.seqr_hm        
#   Direction                    string            4     READ                                       
#   Trans Size                   string            4     WORD                                       
# --------------------------------------------------------------------------------------------------
# 
# UVM_INFO ../slave_agent/apb_slave_drv.sv(165) @ 290: uvm_test_top.env_h.agent_hs_0.drv_hs [apb_slave_drv] READ_ERROR | ADDR=0x21 not in mem_model — returning 0, asserting PSLVERR
# UVM_INFO ../master_agent/apb_master_mon.sv(74) @ 291: uvm_test_top.env_h.agent_hm.mon_hm [apb_master_mon] Data Sent from MASTER-MONITOR to SCOREBOARD = 
# -------------------------------------------
# Name          Type              Size  Value
# -------------------------------------------
# trans_hm      apb_master_trans  -     @1451
#   PWRITE      integral          1     'h0  
#   PADDR       integral          8     'h21 
#   PWDATA      integral          32    'h0  
#   PSTRB       integral          4     'h0  
#   PENABLE     integral          1     'h1  
#   PSEL        da(integral)      0     -    
#   trans_size  transfer_size_e   2     BYTE 
#   PREADY      integral          1     'h1  
#   PRDATA      integral          32    'h0  
#   PSLVERR     integral          1     'h0  
#   Direction   string            4     READ 
#   Trans Size  string            4     BYTE 
# -------------------------------------------
# 
# UVM_INFO ../master_agent/apb_master_mon.sv(43) @ 291: uvm_test_top.env_h.agent_hm.mon_hm [apb_master_mon] Data Received at MASTER-MONITOR from SLAVE-DRIVER = 
# -------------------------------------------
# Name          Type              Size  Value
# -------------------------------------------
# trans_hm      apb_master_trans  -     @1451
#   PWRITE      integral          1     'h0  
#   PADDR       integral          8     'h21 
#   PWDATA      integral          32    'h0  
#   PSTRB       integral          4     'h0  
#   PENABLE     integral          1     'h1  
#   PSEL        da(integral)      0     -    
#   trans_size  transfer_size_e   2     BYTE 
#   PREADY      integral          1     'h1  
#   PRDATA      integral          32    'h0  
#   PSLVERR     integral          1     'h0  
#   Direction   string            4     READ 
#   Trans Size  string            4     BYTE 
# -------------------------------------------
# 
# UVM_INFO ../master_agent/apb_master_drv.sv(180) @ 310: uvm_test_top.env_h.agent_hm.drv_hm [apb_master_drv] [MASTER-TRANS-4] Transfer Complete — MASTER-DRIVER
# --------------------------------------------------------------------------------------------------
# Name                           Type              Size  Value                                      
# --------------------------------------------------------------------------------------------------
# trans_hm                       apb_master_trans  -     @1642                                      
#   PWRITE                       integral          1     'h0                                        
#   PADDR                        integral          8     'h21                                       
#   PWDATA                       integral          32    'h0                                        
#   PSTRB                        integral          4     'h0                                        
#   PENABLE                      integral          1     'h0                                        
#   PSEL                         da(integral)      4     -                                          
#     [0]                        integral          1     'h1                                        
#     [1]                        integral          1     'h0                                        
#     [2]                        integral          1     'h0                                        
#     [3]                        integral          1     'h0                                        
#   trans_size                   transfer_size_e   2     WORD                                       
#   PREADY                       integral          1     'h0                                        
#   PRDATA                       integral          32    'h0                                        
#   PSLVERR                      integral          1     'h0                                        
#   begin_time                   time              64    250                                        
#   depth                        int               32    'd2                                        
#   parent sequence (name)       string            7     seqs_hm                                    
#   parent sequence (full name)  string            43    uvm_test_top.env_h.agent_hm.seqr_hm.seqs_hm
#   sequencer                    string            35    uvm_test_top.env_h.agent_hm.seqr_hm        
#   Direction                    string            4     READ                                       
#   Trans Size                   string            4     WORD                                       
# --------------------------------------------------------------------------------------------------
# 
# UVM_INFO ../slave_agent/apb_slave_drv.sv(67) @ 310: uvm_test_top.env_h.agent_hs_0.drv_hs [apb_slave_drv] Transaction complete at SLAVE-DRIVER =
# -----------------------------------------------------------------------------------------------------
# Name                           Type             Size  Value                                          
# -----------------------------------------------------------------------------------------------------
# trans_hs                       apb_slave_trans  -     @1634                                          
#   PADDR                        integral         8     'h0                                            
#   PWDATA                       integral         32    'h0                                            
#   PRDATA                       integral         32    'h0                                            
#   PSTRB                        integral         4     'h0                                            
#   PWRITE                       integral         1     'h0                                            
#   PENABLE                      integral         1     'h0                                            
#   PREADY                       integral         1     'h0                                            
#   PSLVERR                      integral         1     'h0                                            
#   PSEL                         da(integral)     0     -                                              
#   no_of_wait_cycles            integral         32    'd0                                            
#   wait_enable                  integral         1     'd0                                            
#   begin_time                   time             64    190                                            
#   depth                        int              32    'd2                                            
#   parent sequence (name)       string           9     seqs_hs_0                                      
#   parent sequence (full name)  string           47    uvm_test_top.env_h.agent_hs_0.seqr_hs.seqs_hs_0
#   sequencer                    string           37    uvm_test_top.env_h.agent_hs_0.seqr_hs          
# -----------------------------------------------------------------------------------------------------
# 
# UVM_INFO ../slave_agent/apb_slave_mon.sv(123) @ 310: uvm_test_top.env_h.agent_hs_0.mon_hs [apb_slave_mon] Slave-0 READ  sampled =
# -------------------------------------------------
# Name                 Type             Size  Value
# -------------------------------------------------
# trans_hs             apb_slave_trans  -     @1625
#   PADDR              integral         8     'h21 
#   PWDATA             integral         32    'h0  
#   PRDATA             integral         32    'h0  
#   PSTRB              integral         4     'h0  
#   PWRITE             integral         1     'h0  
#   PENABLE            integral         1     'h1  
#   PREADY             integral         1     'h1  
#   PSLVERR            integral         1     'h0  
#   PSEL               da(integral)     0     -    
#   no_of_wait_cycles  integral         32    'd0  
#   wait_enable        integral         1     'd0  
# -------------------------------------------------
# 
# UVM_INFO ../slave_agent/apb_slave_mon.sv(130) @ 310: uvm_test_top.env_h.agent_hs_0.mon_hs [apb_slave_mon] Slave-0 transaction sent to scoreboard
# UVM_INFO ../master_agent/apb_master_seqs.sv(33) @ 310: uvm_test_top.env_h.agent_hm.seqr_hm@@seqs_hm [apb_master_seqs] Transaction-4 sent from MASTER SEQS =
# --------------------------------------------------------------------------------------------------
# Name                           Type              Size  Value                                      
# --------------------------------------------------------------------------------------------------
# trans_hm                       apb_master_trans  -     @1642                                      
#   PWRITE                       integral          1     'h0                                        
#   PADDR                        integral          8     'h21                                       
#   PWDATA                       integral          32    'h0                                        
#   PSTRB                        integral          4     'h0                                        
#   PENABLE                      integral          1     'h0                                        
#   PSEL                         da(integral)      4     -                                          
#     [0]                        integral          1     'h1                                        
#     [1]                        integral          1     'h0                                        
#     [2]                        integral          1     'h0                                        
#     [3]                        integral          1     'h0                                        
#   trans_size                   transfer_size_e   2     WORD                                       
#   PREADY                       integral          1     'h0                                        
#   PRDATA                       integral          32    'h0                                        
#   PSLVERR                      integral          1     'h0                                        
#   begin_time                   time              64    250                                        
#   end_time                     time              64    310                                        
#   depth                        int               32    'd2                                        
#   parent sequence (name)       string            7     seqs_hm                                    
#   parent sequence (full name)  string            43    uvm_test_top.env_h.agent_hm.seqr_hm.seqs_hm
#   sequencer                    string            35    uvm_test_top.env_h.agent_hm.seqr_hm        
#   Direction                    string            4     READ                                       
#   Trans Size                   string            4     WORD                                       
# --------------------------------------------------------------------------------------------------
# 
# 
# ---------- Master Transaction : 5 ----------
# 
# UVM_INFO ../slave_agent/apb_slave_drv.sv(58) @ 310: uvm_test_top.env_h.agent_hs_0.drv_hs [apb_slave_drv] Transaction received at SLAVE-DRIVER =
# -----------------------------------------------------------------------------------------------------
# Name                           Type             Size  Value                                          
# -----------------------------------------------------------------------------------------------------
# trans_hs                       apb_slave_trans  -     @1659                                          
#   PADDR                        integral         8     'h0                                            
#   PWDATA                       integral         32    'h0                                            
#   PRDATA                       integral         32    'h0                                            
#   PSTRB                        integral         4     'h0                                            
#   PWRITE                       integral         1     'h0                                            
#   PENABLE                      integral         1     'h0                                            
#   PREADY                       integral         1     'h0                                            
#   PSLVERR                      integral         1     'h0                                            
#   PSEL                         da(integral)     0     -                                              
#   no_of_wait_cycles            integral         32    'd0                                            
#   wait_enable                  integral         1     'd0                                            
#   begin_time                   time             64    310                                            
#   depth                        int              32    'd2                                            
#   parent sequence (name)       string           9     seqs_hs_0                                      
#   parent sequence (full name)  string           47    uvm_test_top.env_h.agent_hs_0.seqr_hs.seqs_hs_0
#   sequencer                    string           37    uvm_test_top.env_h.agent_hs_0.seqr_hs          
# -----------------------------------------------------------------------------------------------------
# 
# UVM_INFO ../master_agent/apb_master_drv.sv(170) @ 310: uvm_test_top.env_h.agent_hm.drv_hm [apb_master_drv] [MASTER-TRANS-5] Data Received at MASTER-DRIVER =
# --------------------------------------------------------------------------------------------------
# Name                           Type              Size  Value                                      
# --------------------------------------------------------------------------------------------------
# trans_hm                       apb_master_trans  -     @1655                                      
#   PWRITE                       integral          1     'h1                                        
#   PADDR                        integral          8     'ha4                                       
#   PWDATA                       integral          32    'h695a88ea                                 
#   PSTRB                        integral          4     'hf                                        
#   PENABLE                      integral          1     'h0                                        
#   PSEL                         da(integral)      0     -                                          
#   trans_size                   transfer_size_e   2     WORD                                       
#   PREADY                       integral          1     'h0                                        
#   PRDATA                       integral          32    'h0                                        
#   PSLVERR                      integral          1     'h0                                        
#   begin_time                   time              64    310                                        
#   depth                        int               32    'd2                                        
#   parent sequence (name)       string            7     seqs_hm                                    
#   parent sequence (full name)  string            43    uvm_test_top.env_h.agent_hm.seqr_hm.seqs_hm
#   sequencer                    string            35    uvm_test_top.env_h.agent_hm.seqr_hm        
#   Direction                    string            5     WRITE                                      
#   Trans Size                   string            4     WORD                                       
# --------------------------------------------------------------------------------------------------
# 
# UVM_INFO ../slave_agent/apb_slave_drv.sv(143) @ 350: uvm_test_top.env_h.agent_hs_2.drv_hs [apb_slave_drv] WRITE | ADDR=0xa4 | DATA=0x695a88ea | STRB=0xf
# UVM_INFO ../master_agent/apb_master_mon.sv(74) @ 351: uvm_test_top.env_h.agent_hm.mon_hm [apb_master_mon] Data Sent from MASTER-MONITOR to SCOREBOARD = 
# ------------------------------------------------
# Name          Type              Size  Value     
# ------------------------------------------------
# trans_hm      apb_master_trans  -     @1451     
#   PWRITE      integral          1     'h1       
#   PADDR       integral          8     'ha4      
#   PWDATA      integral          32    'h695a88ea
#   PSTRB       integral          4     'h0       
#   PENABLE     integral          1     'h1       
#   PSEL        da(integral)      0     -         
#   trans_size  transfer_size_e   2     BYTE      
#   PREADY      integral          1     'h1       
#   PRDATA      integral          32    'h0       
#   PSLVERR     integral          1     'h0       
#   Direction   string            5     WRITE     
#   Trans Size  string            4     BYTE      
# ------------------------------------------------
# 
# UVM_INFO ../master_agent/apb_master_mon.sv(43) @ 351: uvm_test_top.env_h.agent_hm.mon_hm [apb_master_mon] Data Received at MASTER-MONITOR from SLAVE-DRIVER = 
# ------------------------------------------------
# Name          Type              Size  Value     
# ------------------------------------------------
# trans_hm      apb_master_trans  -     @1451     
#   PWRITE      integral          1     'h1       
#   PADDR       integral          8     'ha4      
#   PWDATA      integral          32    'h695a88ea
#   PSTRB       integral          4     'h0       
#   PENABLE     integral          1     'h1       
#   PSEL        da(integral)      0     -         
#   trans_size  transfer_size_e   2     BYTE      
#   PREADY      integral          1     'h1       
#   PRDATA      integral          32    'h0       
#   PSLVERR     integral          1     'h0       
#   Direction   string            5     WRITE     
#   Trans Size  string            4     BYTE      
# ------------------------------------------------
# 
# UVM_INFO ../master_agent/apb_master_drv.sv(180) @ 370: uvm_test_top.env_h.agent_hm.drv_hm [apb_master_drv] [MASTER-TRANS-5] Transfer Complete — MASTER-DRIVER
# --------------------------------------------------------------------------------------------------
# Name                           Type              Size  Value                                      
# --------------------------------------------------------------------------------------------------
# trans_hm                       apb_master_trans  -     @1655                                      
#   PWRITE                       integral          1     'h1                                        
#   PADDR                        integral          8     'ha4                                       
#   PWDATA                       integral          32    'h695a88ea                                 
#   PSTRB                        integral          4     'hf                                        
#   PENABLE                      integral          1     'h0                                        
#   PSEL                         da(integral)      4     -                                          
#     [0]                        integral          1     'h0                                        
#     [1]                        integral          1     'h0                                        
#     [2]                        integral          1     'h1                                        
#     [3]                        integral          1     'h0                                        
#   trans_size                   transfer_size_e   2     WORD                                       
#   PREADY                       integral          1     'h0                                        
#   PRDATA                       integral          32    'h0                                        
#   PSLVERR                      integral          1     'h0                                        
#   begin_time                   time              64    310                                        
#   depth                        int               32    'd2                                        
#   parent sequence (name)       string            7     seqs_hm                                    
#   parent sequence (full name)  string            43    uvm_test_top.env_h.agent_hm.seqr_hm.seqs_hm
#   sequencer                    string            35    uvm_test_top.env_h.agent_hm.seqr_hm        
#   Direction                    string            5     WRITE                                      
#   Trans Size                   string            4     WORD                                       
# --------------------------------------------------------------------------------------------------
# 
# UVM_INFO ../slave_agent/apb_slave_drv.sv(67) @ 370: uvm_test_top.env_h.agent_hs_2.drv_hs [apb_slave_drv] Transaction complete at SLAVE-DRIVER =
# -----------------------------------------------------------------------------------------------------
# Name                           Type             Size  Value                                          
# -----------------------------------------------------------------------------------------------------
# trans_hs                       apb_slave_trans  -     @1459                                          
#   PADDR                        integral         8     'h0                                            
#   PWDATA                       integral         32    'h0                                            
#   PRDATA                       integral         32    'h0                                            
#   PSTRB                        integral         4     'h0                                            
#   PWRITE                       integral         1     'h0                                            
#   PENABLE                      integral         1     'h0                                            
#   PREADY                       integral         1     'h0                                            
#   PSLVERR                      integral         1     'h0                                            
#   PSEL                         da(integral)     0     -                                              
#   no_of_wait_cycles            integral         32    'd0                                            
#   wait_enable                  integral         1     'd0                                            
#   begin_time                   time             64    50                                             
#   depth                        int              32    'd2                                            
#   parent sequence (name)       string           9     seqs_hs_2                                      
#   parent sequence (full name)  string           47    uvm_test_top.env_h.agent_hs_2.seqr_hs.seqs_hs_2
#   sequencer                    string           37    uvm_test_top.env_h.agent_hs_2.seqr_hs          
# -----------------------------------------------------------------------------------------------------
# 
# UVM_INFO ../slave_agent/apb_slave_mon.sv(121) @ 370: uvm_test_top.env_h.agent_hs_2.mon_hs [apb_slave_mon] Slave-2 WRITE sampled =
# ------------------------------------------------------
# Name                 Type             Size  Value     
# ------------------------------------------------------
# trans_hs             apb_slave_trans  -     @1603     
#   PADDR              integral         8     'ha4      
#   PWDATA             integral         32    'h695a88ea
#   PRDATA             integral         32    'h0       
#   PSTRB              integral         4     'hf       
#   PWRITE             integral         1     'h1       
#   PENABLE            integral         1     'h1       
#   PREADY             integral         1     'h1       
#   PSLVERR            integral         1     'h0       
#   PSEL               da(integral)     0     -         
#   no_of_wait_cycles  integral         32    'd0       
#   wait_enable        integral         1     'd0       
# ------------------------------------------------------
# 
# UVM_INFO ../slave_agent/apb_slave_mon.sv(130) @ 370: uvm_test_top.env_h.agent_hs_2.mon_hs [apb_slave_mon] Slave-2 transaction sent to scoreboard
# UVM_INFO ../master_agent/apb_master_seqs.sv(33) @ 370: uvm_test_top.env_h.agent_hm.seqr_hm@@seqs_hm [apb_master_seqs] Transaction-5 sent from MASTER SEQS =
# --------------------------------------------------------------------------------------------------
# Name                           Type              Size  Value                                      
# --------------------------------------------------------------------------------------------------
# trans_hm                       apb_master_trans  -     @1655                                      
#   PWRITE                       integral          1     'h1                                        
#   PADDR                        integral          8     'ha4                                       
#   PWDATA                       integral          32    'h695a88ea                                 
#   PSTRB                        integral          4     'hf                                        
#   PENABLE                      integral          1     'h0                                        
#   PSEL                         da(integral)      4     -                                          
#     [0]                        integral          1     'h0                                        
#     [1]                        integral          1     'h0                                        
#     [2]                        integral          1     'h1                                        
#     [3]                        integral          1     'h0                                        
#   trans_size                   transfer_size_e   2     WORD                                       
