# vsim -vopt apb_top -c -do "run -all; exit" "+UVM_TESTNAME=apb_multi_slave_min_max_mid_addr_test" 
# Start time: 16:50:07 on Jun 09,2026
# ** Note: (vsim-3813) Design is being optimized due to module recompilation...
# //  Questa Sim-64
# //  Version 10.7c win64 Aug 18 2018
# //
# //  Copyright 1991-2018 Mentor Graphics Corporation
# //  All Rights Reserved.
# //
# //  QuestaSim and its associated documentation contain trade
# //  secrets and commercial or financial information that are the property of
# //  Mentor Graphics Corporation and are privileged, confidential,
# //  and exempt from disclosure under the Freedom of Information Act,
# //  5 U.S.C. Section 552. Furthermore, this information
# //  is prohibited from disclosure under the Trade Secrets Act,
# //  18 U.S.C. Section 1905.
# //
# Loading sv_std.std
# Loading work.apb_inf(fast)
# Loading mtiUvm.uvm_pkg
# Loading work.apb_pkg(fast)
# Loading work.apb_top_sv_unit(fast)
# Loading work.apb_top(fast)
# Loading work.apb_pkg_sv_unit(fast)
# Loading work.apb_inf(fast)
# Loading mtiUvm.questa_uvm_pkg(fast)
# Loading C:/questasim64_10.7c/uvm-1.1d\win64\uvm_dpi.dll
# run -all
# ----------------------------------------------------------------
# UVM-1.1d
# (C) 2007-2013 Mentor Graphics Corporation
# (C) 2007-2013 Cadence Design Systems, Inc.
# (C) 2006-2013 Synopsys, Inc.
# (C) 2011-2013 Cypress Semiconductor Corp.
# ----------------------------------------------------------------
# 
#   ***********       IMPORTANT RELEASE NOTES         ************
# 
#   You are using a version of the UVM library that has been compiled
#   with `UVM_NO_DEPRECATED undefined.
#   See http://www.eda.org/svdb/view.php?id=3313 for more details.
# 
#   You are using a version of the UVM library that has been compiled
#   with `UVM_OBJECT_MUST_HAVE_CONSTRUCTOR undefined.
#   See http://www.eda.org/svdb/view.php?id=3770 for more details.
# 
#       (Specify +UVM_NO_RELNOTES to turn off this notice)
# 
# UVM_INFO verilog_src/questa_uvm_pkg-1.2/src/questa_uvm_pkg.sv(215) @ 0: reporter [Questa UVM] QUESTA_UVM-1.2.3
# UVM_INFO verilog_src/questa_uvm_pkg-1.2/src/questa_uvm_pkg.sv(216) @ 0: reporter [Questa UVM]  questa_uvm::init(+struct)
# UVM_INFO @ 0: reporter [RNTST] Running test apb_multi_slave_min_max_mid_addr_test...
# UVM_INFO ../test/apb_base_test.sv(60) @ 0: uvm_test_top [apb_multi_slave_min_max_mid_addr_test] Build-Phase complete in Test
# UVM_INFO ../env/apb_env.sv(58) @ 0: uvm_test_top.env_h [apb_env] ENV built | slaves=4
# UVM_INFO ../master_agent/apb_master_agent.sv(23) @ 0: uvm_test_top.env_h.agent_hm [apb_master_agent] Executing Build-Phase in Master Agent
# UVM_INFO ../master_agent/apb_master_agent.sv(39) @ 0: uvm_test_top.env_h.agent_hm [apb_master_agent] Build-Phase Complete in Master Agent
# ------ Execution Done Build-Phase in Master Driver -------
# UVM_INFO ../slave_agent/apb_slave_agent.sv(25) @ 0: uvm_test_top.env_h.agent_hs_0 [apb_slave_agent] Executing Build-Phase in Slave Agent
# UVM_INFO ../slave_agent/apb_slave_agent.sv(41) @ 0: uvm_test_top.env_h.agent_hs_0 [apb_slave_agent] Build-Phase Complete in Slave Agent
# UVM_INFO ../slave_agent/apb_slave_drv.sv(30) @ 0: uvm_test_top.env_h.agent_hs_0.drv_hs [apb_slave_drv] Build-Phase Complete in Slave Driver
# UVM_INFO ../slave_agent/apb_slave_agent.sv(25) @ 0: uvm_test_top.env_h.agent_hs_1 [apb_slave_agent] Executing Build-Phase in Slave Agent
# UVM_INFO ../slave_agent/apb_slave_agent.sv(41) @ 0: uvm_test_top.env_h.agent_hs_1 [apb_slave_agent] Build-Phase Complete in Slave Agent
# UVM_INFO ../slave_agent/apb_slave_drv.sv(30) @ 0: uvm_test_top.env_h.agent_hs_1.drv_hs [apb_slave_drv] Build-Phase Complete in Slave Driver
# UVM_INFO ../slave_agent/apb_slave_agent.sv(25) @ 0: uvm_test_top.env_h.agent_hs_2 [apb_slave_agent] Executing Build-Phase in Slave Agent
# UVM_INFO ../slave_agent/apb_slave_agent.sv(41) @ 0: uvm_test_top.env_h.agent_hs_2 [apb_slave_agent] Build-Phase Complete in Slave Agent
# UVM_INFO ../slave_agent/apb_slave_drv.sv(30) @ 0: uvm_test_top.env_h.agent_hs_2.drv_hs [apb_slave_drv] Build-Phase Complete in Slave Driver
# UVM_INFO ../slave_agent/apb_slave_agent.sv(25) @ 0: uvm_test_top.env_h.agent_hs_3 [apb_slave_agent] Executing Build-Phase in Slave Agent
# UVM_INFO ../slave_agent/apb_slave_agent.sv(41) @ 0: uvm_test_top.env_h.agent_hs_3 [apb_slave_agent] Build-Phase Complete in Slave Agent
# UVM_INFO ../slave_agent/apb_slave_drv.sv(30) @ 0: uvm_test_top.env_h.agent_hs_3.drv_hs [apb_slave_drv] Build-Phase Complete in Slave Driver
# UVM_INFO ../master_agent/apb_master_agent.sv(47) @ 0: uvm_test_top.env_h.agent_hm [apb_master_agent] Executing Connect-Phase in Master Agent
# UVM_INFO ../master_agent/apb_master_agent.sv(53) @ 0: uvm_test_top.env_h.agent_hm [apb_master_agent] Connect-Phase Complete in Master Agent
# UVM_INFO ../slave_agent/apb_slave_agent.sv(49) @ 0: uvm_test_top.env_h.agent_hs_0 [apb_slave_agent] Executing Connect-Phase in Slave Agent
# UVM_INFO ../slave_agent/apb_slave_agent.sv(55) @ 0: uvm_test_top.env_h.agent_hs_0 [apb_slave_agent] Connect-Phase Complete in Slave Agent
# UVM_INFO ../slave_agent/apb_slave_agent.sv(49) @ 0: uvm_test_top.env_h.agent_hs_1 [apb_slave_agent] Executing Connect-Phase in Slave Agent
# UVM_INFO ../slave_agent/apb_slave_agent.sv(55) @ 0: uvm_test_top.env_h.agent_hs_1 [apb_slave_agent] Connect-Phase Complete in Slave Agent
# UVM_INFO ../slave_agent/apb_slave_agent.sv(49) @ 0: uvm_test_top.env_h.agent_hs_2 [apb_slave_agent] Executing Connect-Phase in Slave Agent
# UVM_INFO ../slave_agent/apb_slave_agent.sv(55) @ 0: uvm_test_top.env_h.agent_hs_2 [apb_slave_agent] Connect-Phase Complete in Slave Agent
# UVM_INFO ../slave_agent/apb_slave_agent.sv(49) @ 0: uvm_test_top.env_h.agent_hs_3 [apb_slave_agent] Executing Connect-Phase in Slave Agent
# UVM_INFO ../slave_agent/apb_slave_agent.sv(55) @ 0: uvm_test_top.env_h.agent_hs_3 [apb_slave_agent] Connect-Phase Complete in Slave Agent
# UVM_INFO ../env/apb_env.sv(75) @ 0: uvm_test_top.env_h [apb_env] Connect-Phase complete in ENV
# UVM_INFO @ 0: reporter [UVMTOP] UVM testbench topology:
# -----------------------------------------------------------------------------
# Name                       Type                                   Size  Value
# -----------------------------------------------------------------------------
# uvm_test_top               apb_multi_slave_min_max_mid_addr_test  -     @475 
#   env_h                    apb_env                                -     @498 
#     agent_hm               apb_master_agent                       -     @537 
#       drv_hm               apb_master_drv                         -     @603 
#         rsp_port           uvm_analysis_port                      -     @618 
#         seq_item_port      uvm_seq_item_pull_port                 -     @610 
#       mon_hm               apb_master_mon                         -     @588 
#         mas_mon_ap         uvm_analysis_port                      -     @595 
#       seqr_hm              apb_master_seqr                        -     @626 
#         rsp_export         uvm_analysis_export                    -     @633 
#         seq_item_export    uvm_seq_item_pull_imp                  -     @727 
#         arbitration_queue  array                                  0     -    
#         lock_queue         array                                  0     -    
#         num_last_reqs      integral                               32    'd1  
#         num_last_rsps      integral                               32    'd1  
#     agent_hs_0             apb_slave_agent                        -     @551 
#       drv_hs               apb_slave_drv                          -     @770 
#         rsp_port           uvm_analysis_port                      -     @785 
#         seq_item_port      uvm_seq_item_pull_port                 -     @777 
#       mon_hs               apb_slave_mon                          -     @755 
#         slv_mon_ap         uvm_analysis_port                      -     @762 
#       seqr_hs              apb_slave_seqr                         -     @793 
#         rsp_export         uvm_analysis_export                    -     @800 
#         seq_item_export    uvm_seq_item_pull_imp                  -     @894 
#         arbitration_queue  array                                  0     -    
#         lock_queue         array                                  0     -    
#         num_last_reqs      integral                               32    'd1  
#         num_last_rsps      integral                               32    'd1  
#     agent_hs_1             apb_slave_agent                        -     @562 
#       drv_hs               apb_slave_drv                          -     @928 
#         rsp_port           uvm_analysis_port                      -     @943 
#         seq_item_port      uvm_seq_item_pull_port                 -     @935 
#       mon_hs               apb_slave_mon                          -     @913 
#         slv_mon_ap         uvm_analysis_port                      -     @920 
#       seqr_hs              apb_slave_seqr                         -     @951 
#         rsp_export         uvm_analysis_export                    -     @958 
#         seq_item_export    uvm_seq_item_pull_imp                  -     @1052
#         arbitration_queue  array                                  0     -    
#         lock_queue         array                                  0     -    
#         num_last_reqs      integral                               32    'd1  
#         num_last_rsps      integral                               32    'd1  
#     agent_hs_2             apb_slave_agent                        -     @570 
#       drv_hs               apb_slave_drv                          -     @1086
#         rsp_port           uvm_analysis_port                      -     @1101
#         seq_item_port      uvm_seq_item_pull_port                 -     @1093
#       mon_hs               apb_slave_mon                          -     @1071
#         slv_mon_ap         uvm_analysis_port                      -     @1078
#       seqr_hs              apb_slave_seqr                         -     @1109
#         rsp_export         uvm_analysis_export                    -     @1116
#         seq_item_export    uvm_seq_item_pull_imp                  -     @1210
#         arbitration_queue  array                                  0     -    
#         lock_queue         array                                  0     -    
#         num_last_reqs      integral                               32    'd1  
#         num_last_rsps      integral                               32    'd1  
#     agent_hs_3             apb_slave_agent                        -     @578 
#       drv_hs               apb_slave_drv                          -     @1244
#         rsp_port           uvm_analysis_port                      -     @1259
#         seq_item_port      uvm_seq_item_pull_port                 -     @1251
#       mon_hs               apb_slave_mon                          -     @1229
#         slv_mon_ap         uvm_analysis_port                      -     @1236
#       seqr_hs              apb_slave_seqr                         -     @1267
#         rsp_export         uvm_analysis_export                    -     @1274
#         seq_item_export    uvm_seq_item_pull_imp                  -     @1368
#         arbitration_queue  array                                  0     -    
#         lock_queue         array                                  0     -    
#         num_last_reqs      integral                               32    'd1  
#         num_last_rsps      integral                               32    'd1  
#     sb_h                   apb_sb                                 -     @544 
#       mas_mon_fifo_h       uvm_tlm_analysis_fifo #(T)             -     @1385
#         analysis_export    uvm_analysis_imp                       -     @1424
#         get_ap             uvm_analysis_port                      -     @1416
#         get_peek_export    uvm_get_peek_imp                       -     @1400
#         put_ap             uvm_analysis_port                      -     @1408
#         put_export         uvm_put_imp                            -     @1392
#       slv_mon_fifo_h_0     uvm_tlm_analysis_fifo #(T)             -     @1453
#         analysis_export    uvm_analysis_imp                       -     @1492
#         get_ap             uvm_analysis_port                      -     @1484
#         get_peek_export    uvm_get_peek_imp                       -     @1468
#         put_ap             uvm_analysis_port                      -     @1476
#         put_export         uvm_put_imp                            -     @1460
#       slv_mon_fifo_h_1     uvm_tlm_analysis_fifo #(T)             -     @1500
#         analysis_export    uvm_analysis_imp                       -     @1539
#         get_ap             uvm_analysis_port                      -     @1531
#         get_peek_export    uvm_get_peek_imp                       -     @1515
#         put_ap             uvm_analysis_port                      -     @1523
#         put_export         uvm_put_imp                            -     @1507
#       slv_mon_fifo_h_2     uvm_tlm_analysis_fifo #(T)             -     @1547
#         analysis_export    uvm_analysis_imp                       -     @1586
#         get_ap             uvm_analysis_port                      -     @1578
#         get_peek_export    uvm_get_peek_imp                       -     @1562
#         put_ap             uvm_analysis_port                      -     @1570
#         put_export         uvm_put_imp                            -     @1554
#       slv_mon_fifo_h_3     uvm_tlm_analysis_fifo #(T)             -     @1594
#         analysis_export    uvm_analysis_imp                       -     @1633
#         get_ap             uvm_analysis_port                      -     @1625
#         get_peek_export    uvm_get_peek_imp                       -     @1609
#         put_ap             uvm_analysis_port                      -     @1617
#         put_export         uvm_put_imp                            -     @1601
# -----------------------------------------------------------------------------
# 
# UVM_INFO ../test/apb_base_test.sv(69) @ 0: uvm_test_top [apb_multi_slave_min_max_mid_addr_test] End-of-Elaboration complete in Test
# UVM_INFO ../slave_agent/apb_slave_config.sv(52) @ 0: reporter [apb_slave_config] Slave-0 | Range: 0x0–0x3f | is_active=UVM_ACTIVE | wait=0
# UVM_INFO ../slave_agent/apb_slave_config.sv(52) @ 0: reporter [apb_slave_config] Slave-1 | Range: 0x40–0x7f | is_active=UVM_ACTIVE | wait=0
# UVM_INFO ../slave_agent/apb_slave_config.sv(52) @ 0: reporter [apb_slave_config] Slave-2 | Range: 0x80–0xbf | is_active=UVM_ACTIVE | wait=0
# UVM_INFO ../slave_agent/apb_slave_config.sv(52) @ 0: reporter [apb_slave_config] Slave-3 | Range: 0xc0–0xff | is_active=UVM_ACTIVE | wait=0
# 
# ---------- apb_multi_slave_min_max_mid_addr_seqs transaction : 1 ----------
# 
# UVM_INFO ../slave_agent/apb_slave_drv.sv(58) @ 50: uvm_test_top.env_h.agent_hs_0.drv_hs [apb_slave_drv] Transaction received at SLAVE-DRIVER =
# -----------------------------------------------------------------------------------------------------
# Name                           Type             Size  Value                                          
# -----------------------------------------------------------------------------------------------------
# trans_hs                       apb_slave_trans  -     @1672                                          
#   PADDR                        integral         8     'h0xx                                          
#   PWDATA                       integral         32    'h0xxxxxxxx                                    
#   PRDATA                       integral         32    'h0xxxxxxxx                                    
#   PSTRB                        integral         4     'h0x                                           
#   PWRITE                       integral         1     'h0X                                           
#   PENABLE                      integral         1     'h0X                                           
#   PREADY                       integral         1     'h0X                                           
#   PSLVERR                      integral         1     'h0X                                           
#   PSEL                         da(integral)     0     -                                              
#   no_of_wait_cycles            integral         32    'd1                                            
#   wait_enable                  integral         1     1                                              
#   begin_time                   time             64    50                                             
#   depth                        int              32    'd2                                            
#   parent sequence (name)       string           9     seqs_hs_0                                      
#   parent sequence (full name)  string           47    uvm_test_top.env_h.agent_hs_0.seqr_hs.seqs_hs_0
#   sequencer                    string           37    uvm_test_top.env_h.agent_hs_0.seqr_hs          
# -----------------------------------------------------------------------------------------------------
# 
# UVM_INFO ../slave_agent/apb_slave_drv.sv(58) @ 50: uvm_test_top.env_h.agent_hs_1.drv_hs [apb_slave_drv] Transaction received at SLAVE-DRIVER =
# -----------------------------------------------------------------------------------------------------
# Name                           Type             Size  Value                                          
# -----------------------------------------------------------------------------------------------------
# trans_hs                       apb_slave_trans  -     @1668                                          
#   PADDR                        integral         8     'h0xx                                          
#   PWDATA                       integral         32    'h0xxxxxxxx                                    
#   PRDATA                       integral         32    'h0xxxxxxxx                                    
#   PSTRB                        integral         4     'h0x                                           
#   PWRITE                       integral         1     'h0X                                           
#   PENABLE                      integral         1     'h0X                                           
#   PREADY                       integral         1     'h0X                                           
#   PSLVERR                      integral         1     'h0X                                           
#   PSEL                         da(integral)     0     -                                              
#   no_of_wait_cycles            integral         32    'd0                                            
#   wait_enable                  integral         1     'd0                                            
#   begin_time                   time             64    50                                             
#   depth                        int              32    'd2                                            
#   parent sequence (name)       string           9     seqs_hs_1                                      
#   parent sequence (full name)  string           47    uvm_test_top.env_h.agent_hs_1.seqr_hs.seqs_hs_1
#   sequencer                    string           37    uvm_test_top.env_h.agent_hs_1.seqr_hs          
# -----------------------------------------------------------------------------------------------------
# 
# UVM_INFO ../slave_agent/apb_slave_drv.sv(58) @ 50: uvm_test_top.env_h.agent_hs_2.drv_hs [apb_slave_drv] Transaction received at SLAVE-DRIVER =
# -----------------------------------------------------------------------------------------------------
# Name                           Type             Size  Value                                          
# -----------------------------------------------------------------------------------------------------
# trans_hs                       apb_slave_trans  -     @1664                                          
#   PADDR                        integral         8     'h0xx                                          
#   PWDATA                       integral         32    'h0xxxxxxxx                                    
#   PRDATA                       integral         32    'h0xxxxxxxx                                    
#   PSTRB                        integral         4     'h0x                                           
#   PWRITE                       integral         1     'h0X                                           
#   PENABLE                      integral         1     'h0X                                           
#   PREADY                       integral         1     'h0X                                           
#   PSLVERR                      integral         1     'h0X                                           
#   PSEL                         da(integral)     0     -                                              
#   no_of_wait_cycles            integral         32    'd0                                            
#   wait_enable                  integral         1     'd0                                            
#   begin_time                   time             64    50                                             
#   depth                        int              32    'd2                                            
#   parent sequence (name)       string           9     seqs_hs_2                                      
#   parent sequence (full name)  string           47    uvm_test_top.env_h.agent_hs_2.seqr_hs.seqs_hs_2
#   sequencer                    string           37    uvm_test_top.env_h.agent_hs_2.seqr_hs          
# -----------------------------------------------------------------------------------------------------
# 
# UVM_INFO ../slave_agent/apb_slave_drv.sv(58) @ 50: uvm_test_top.env_h.agent_hs_3.drv_hs [apb_slave_drv] Transaction received at SLAVE-DRIVER =
# -----------------------------------------------------------------------------------------------------
# Name                           Type             Size  Value                                          
# -----------------------------------------------------------------------------------------------------
# trans_hs                       apb_slave_trans  -     @1660                                          
#   PADDR                        integral         8     'h0xx                                          
#   PWDATA                       integral         32    'h0xxxxxxxx                                    
#   PRDATA                       integral         32    'h0xxxxxxxx                                    
#   PSTRB                        integral         4     'h0x                                           
#   PWRITE                       integral         1     'h0X                                           
#   PENABLE                      integral         1     'h0X                                           
#   PREADY                       integral         1     'h0X                                           
#   PSLVERR                      integral         1     'h0X                                           
#   PSEL                         da(integral)     0     -                                              
#   no_of_wait_cycles            integral         32    'd0                                            
#   wait_enable                  integral         1     'd0                                            
#   begin_time                   time             64    50                                             
#   depth                        int              32    'd2                                            
#   parent sequence (name)       string           9     seqs_hs_3                                      
#   parent sequence (full name)  string           47    uvm_test_top.env_h.agent_hs_3.seqr_hs.seqs_hs_3
#   sequencer                    string           37    uvm_test_top.env_h.agent_hs_3.seqr_hs          
# -----------------------------------------------------------------------------------------------------
# 
# UVM_INFO ../master_agent/apb_master_drv.sv(151) @ 50: uvm_test_top.env_h.agent_hm.drv_hm [apb_master_drv] [MASTER-TRANS-1] Data Received at MASTER-DRIVER =
# -------------------------------------------------------------------------------------------------
# Name                           Type              Size  Value                                     
# -------------------------------------------------------------------------------------------------
# trans_hm                       apb_master_trans  -     @1676                                     
#   PWRITE                       integral          1     'h1                                       
#   PADDR                        integral          8     'h18                                      
#   PWDATA                       integral          32    'hc9335f53                                
#   PSTRB                        integral          4     'hf                                       
#   PENABLE                      integral          1     'h1                                       
#   PSEL                         da(integral)      0     -                                         
#   trans_size                   transfer_size_e   2     WORD                                      
#   PREADY                       integral          1     'h0X                                      
#   PRDATA                       integral          32    'h0xxxxxxxx                               
#   PSLVERR                      integral          1     'h0X                                      
#   begin_time                   time              64    50                                        
#   depth                        int               32    'd2                                       
#   parent sequence (name)       string            6     s2_seq                                    
#   parent sequence (full name)  string            42    uvm_test_top.env_h.agent_hm.seqr_hm.s2_seq
#   sequencer                    string            35    uvm_test_top.env_h.agent_hm.seqr_hm       
#   Direction                    string            5     WRITE                                     
#   Trans Size                   string            4     WORD                                      
# -------------------------------------------------------------------------------------------------
# 
# UVM_INFO ../slave_agent/apb_slave_drv.sv(122) @ 110: uvm_test_top.env_h.agent_hs_0.drv_hs [apb_slave_drv] WRITE | ADDR=0x18 | DATA=0xc9335f53 | STRB=0xf
# UVM_INFO ../slave_agent/apb_slave_mon.sv(95) @ 130: uvm_test_top.env_h.agent_hs_0.mon_hs [apb_slave_mon] Slave-0 WRITE sampled =
# -------------------------------------------------------
# Name                 Type             Size  Value      
# -------------------------------------------------------
# trans_hs             apb_slave_trans  -     @1800      
#   PADDR              integral         8     'h18       
#   PWDATA             integral         32    'hc9335f53 
#   PRDATA             integral         32    'h0xxxxxxxx
#   PSTRB              integral         4     'hf        
#   PWRITE             integral         1     'h1        
#   PENABLE            integral         1     'h1        
#   PREADY             integral         1     'h1        
#   PSLVERR            integral         1     'h0X       
#   PSEL               da(integral)     0     -          
#   no_of_wait_cycles  integral         32    'd0        
#   wait_enable        integral         1     'dX        
# -------------------------------------------------------
# 
# UVM_INFO ../slave_agent/apb_slave_mon.sv(104) @ 130: uvm_test_top.env_h.agent_hs_0.mon_hs [apb_slave_mon] Slave-0 transaction sent to scoreboard = 
# -------------------------------------------------------
# Name                 Type             Size  Value      
# -------------------------------------------------------
# trans_hs             apb_slave_trans  -     @1800      
#   PADDR              integral         8     'h18       
#   PWDATA             integral         32    'hc9335f53 
#   PRDATA             integral         32    'h0xxxxxxxx
#   PSTRB              integral         4     'hf        
#   PWRITE             integral         1     'h1        
#   PENABLE            integral         1     'h1        
#   PREADY             integral         1     'h1        
#   PSLVERR            integral         1     'h0X       
#   PSEL               da(integral)     0     -          
#   no_of_wait_cycles  integral         32    'd0        
#   wait_enable        integral         1     'dX        
# -------------------------------------------------------
# 
# UVM_INFO ../master_agent/apb_master_drv.sv(161) @ 130: uvm_test_top.env_h.agent_hm.drv_hm [apb_master_drv] [MASTER-TRANS-1] Transfer Complete — MASTER-DRIVER
# -------------------------------------------------------------------------------------------------
# Name                           Type              Size  Value                                     
# -------------------------------------------------------------------------------------------------
# trans_hm                       apb_master_trans  -     @1676                                     
#   PWRITE                       integral          1     'h1                                       
#   PADDR                        integral          8     'h18                                      
#   PWDATA                       integral          32    'hc9335f53                                
#   PSTRB                        integral          4     'hf                                       
#   PENABLE                      integral          1     'h1                                       
#   PSEL                         da(integral)      4     -                                         
#     [0]                        integral          1     'h1                                       
#     [1]                        integral          1     'h0                                       
#     [2]                        integral          1     'h0                                       
#     [3]                        integral          1     'h0                                       
#   trans_size                   transfer_size_e   2     WORD                                      
#   PREADY                       integral          1     'h0X                                      
#   PRDATA                       integral          32    'h0xxxxxxxx                               
#   PSLVERR                      integral          1     'h0X                                      
#   begin_time                   time              64    50                                        
#   depth                        int               32    'd2                                       
#   parent sequence (name)       string            6     s2_seq                                    
#   parent sequence (full name)  string            42    uvm_test_top.env_h.agent_hm.seqr_hm.s2_seq
#   sequencer                    string            35    uvm_test_top.env_h.agent_hm.seqr_hm       
#   Direction                    string            5     WRITE                                     
#   Trans Size                   string            4     WORD                                      
# -------------------------------------------------------------------------------------------------
# 
# UVM_INFO ../slave_agent/apb_slave_drv.sv(67) @ 130: uvm_test_top.env_h.agent_hs_0.drv_hs [apb_slave_drv] Transaction complete at SLAVE-DRIVER =
# -----------------------------------------------------------------------------------------------------
# Name                           Type             Size  Value                                          
# -----------------------------------------------------------------------------------------------------
# trans_hs                       apb_slave_trans  -     @1672                                          
#   PADDR                        integral         8     'h0xx                                          
#   PWDATA                       integral         32    'h0xxxxxxxx                                    
#   PRDATA                       integral         32    'h0xxxxxxxx                                    
#   PSTRB                        integral         4     'h0x                                           
#   PWRITE                       integral         1     'h0X                                           
#   PENABLE                      integral         1     'h0X                                           
#   PREADY                       integral         1     'h0X                                           
#   PSLVERR                      integral         1     'h0X                                           
#   PSEL                         da(integral)     0     -                                              
#   no_of_wait_cycles            integral         32    'd1                                            
#   wait_enable                  integral         1     1                                              
#   begin_time                   time             64    50                                             
#   depth                        int              32    'd2                                            
#   parent sequence (name)       string           9     seqs_hs_0                                      
#   parent sequence (full name)  string           47    uvm_test_top.env_h.agent_hs_0.seqr_hs.seqs_hs_0
#   sequencer                    string           37    uvm_test_top.env_h.agent_hs_0.seqr_hs          
# -----------------------------------------------------------------------------------------------------
# 
# UVM_INFO ../env/apb_sb.sv(127) @ 130: uvm_test_top.env_h.sb_h [apb_sb] Data received from slave 0 monitor = 
# -------------------------------------------------------
# Name                 Type             Size  Value      
# -------------------------------------------------------
# trans_hs             apb_slave_trans  -     @1800      
#   PADDR              integral         8     'h18       
#   PWDATA             integral         32    'hc9335f53 
#   PRDATA             integral         32    'h0xxxxxxxx
#   PSTRB              integral         4     'hf        
#   PWRITE             integral         1     'h1        
#   PENABLE            integral         1     'h1        
#   PREADY             integral         1     'h1        
#   PSLVERR            integral         1     'h0X       
#   PSEL               da(integral)     0     -          
#   no_of_wait_cycles  integral         32    'd0        
#   wait_enable        integral         1     'dX        
# -------------------------------------------------------
# 
# UVM_INFO ../test//master_tc/apb_multi_slave_min_max_mid_addr_seqs.sv(38) @ 130: uvm_test_top.env_h.agent_hm.seqr_hm@@s2_seq [apb_multi_slave_min_max_mid_addr_seqs] Transaction-1 sent from MASTER SEQS =
# -------------------------------------------------------------------------------------------------
# Name                           Type              Size  Value                                     
# -------------------------------------------------------------------------------------------------
# trans_hm                       apb_master_trans  -     @1676                                     
#   PWRITE                       integral          1     'h1                                       
#   PADDR                        integral          8     'h18                                      
#   PWDATA                       integral          32    'hc9335f53                                
#   PSTRB                        integral          4     'hf                                       
#   PENABLE                      integral          1     'h1                                       
#   PSEL                         da(integral)      4     -                                         
#     [0]                        integral          1     'h1                                       
#     [1]                        integral          1     'h0                                       
#     [2]                        integral          1     'h0                                       
#     [3]                        integral          1     'h0                                       
#   trans_size                   transfer_size_e   2     WORD                                      
#   PREADY                       integral          1     'h0X                                      
#   PRDATA                       integral          32    'h0xxxxxxxx                               
#   PSLVERR                      integral          1     'h0X                                      
#   begin_time                   time              64    50                                        
#   end_time                     time              64    130                                       
#   depth                        int               32    'd2                                       
#   parent sequence (name)       string            6     s2_seq                                    
#   parent sequence (full name)  string            42    uvm_test_top.env_h.agent_hm.seqr_hm.s2_seq
#   sequencer                    string            35    uvm_test_top.env_h.agent_hm.seqr_hm       
#   Direction                    string            5     WRITE                                     
#   Trans Size                   string            4     WORD                                      
# -------------------------------------------------------------------------------------------------
# 
# 
# ---------- apb_multi_slave_min_max_mid_addr_seqs transaction : 2 ----------
# 
# UVM_INFO ../slave_agent/apb_slave_drv.sv(58) @ 130: uvm_test_top.env_h.agent_hs_0.drv_hs [apb_slave_drv] Transaction received at SLAVE-DRIVER =
# -----------------------------------------------------------------------------------------------------
# Name                           Type             Size  Value                                          
# -----------------------------------------------------------------------------------------------------
# trans_hs                       apb_slave_trans  -     @1826                                          
#   PADDR                        integral         8     'h0xx                                          
#   PWDATA                       integral         32    'h0xxxxxxxx                                    
#   PRDATA                       integral         32    'h0xxxxxxxx                                    
#   PSTRB                        integral         4     'h0x                                           
#   PWRITE                       integral         1     'h0X                                           
#   PENABLE                      integral         1     'h0X                                           
#   PREADY                       integral         1     'h0X                                           
#   PSLVERR                      integral         1     'h0X                                           
#   PSEL                         da(integral)     0     -                                              
#   no_of_wait_cycles            integral         32    'd0                                            
#   wait_enable                  integral         1     'd0                                            
#   begin_time                   time             64    130                                            
#   depth                        int              32    'd2                                            
#   parent sequence (name)       string           9     seqs_hs_0                                      
#   parent sequence (full name)  string           47    uvm_test_top.env_h.agent_hs_0.seqr_hs.seqs_hs_0
#   sequencer                    string           37    uvm_test_top.env_h.agent_hs_0.seqr_hs          
# -----------------------------------------------------------------------------------------------------
# 
# UVM_INFO ../master_agent/apb_master_drv.sv(151) @ 130: uvm_test_top.env_h.agent_hm.drv_hm [apb_master_drv] [MASTER-TRANS-2] Data Received at MASTER-DRIVER =
# -------------------------------------------------------------------------------------------------
# Name                           Type              Size  Value                                     
# -------------------------------------------------------------------------------------------------
# trans_hm                       apb_master_trans  -     @1821                                     
#   PWRITE                       integral          1     'h1                                       
#   PADDR                        integral          8     'h4                                       
#   PWDATA                       integral          32    'hdf62910                                 
#   PSTRB                        integral          4     'hf                                       
#   PENABLE                      integral          1     'h1                                       
#   PSEL                         da(integral)      0     -                                         
#   trans_size                   transfer_size_e   2     WORD                                      
#   PREADY                       integral          1     'h0X                                      
#   PRDATA                       integral          32    'h0xxxxxxxx                               
#   PSLVERR                      integral          1     'h0X                                      
#   begin_time                   time              64    130                                       
#   depth                        int               32    'd2                                       
#   parent sequence (name)       string            6     s2_seq                                    
#   parent sequence (full name)  string            42    uvm_test_top.env_h.agent_hm.seqr_hm.s2_seq
#   sequencer                    string            35    uvm_test_top.env_h.agent_hm.seqr_hm       
#   Direction                    string            5     WRITE                                     
#   Trans Size                   string            4     WORD                                      
# -------------------------------------------------------------------------------------------------
# 
# UVM_INFO ../slave_agent/apb_slave_drv.sv(122) @ 170: uvm_test_top.env_h.agent_hs_0.drv_hs [apb_slave_drv] WRITE | ADDR=0x4 | DATA=0xdf62910 | STRB=0xf
# UVM_INFO ../slave_agent/apb_slave_mon.sv(95) @ 190: uvm_test_top.env_h.agent_hs_0.mon_hs [apb_slave_mon] Slave-0 WRITE sampled =
# -------------------------------------------------------
# Name                 Type             Size  Value      
# -------------------------------------------------------
# trans_hs             apb_slave_trans  -     @1816      
#   PADDR              integral         8     'h4        
#   PWDATA             integral         32    'hdf62910  
#   PRDATA             integral         32    'h0xxxxxxxx
#   PSTRB              integral         4     'hf        
#   PWRITE             integral         1     'h1        
#   PENABLE            integral         1     'h1        
#   PREADY             integral         1     'h1        
#   PSLVERR            integral         1     'h0X       
#   PSEL               da(integral)     0     -          
#   no_of_wait_cycles  integral         32    'd0        
#   wait_enable        integral         1     'dX        
# -------------------------------------------------------
# 
# UVM_INFO ../slave_agent/apb_slave_mon.sv(104) @ 190: uvm_test_top.env_h.agent_hs_0.mon_hs [apb_slave_mon] Slave-0 transaction sent to scoreboard = 
# -------------------------------------------------------
# Name                 Type             Size  Value      
# -------------------------------------------------------
# trans_hs             apb_slave_trans  -     @1816      
#   PADDR              integral         8     'h4        
#   PWDATA             integral         32    'hdf62910  
#   PRDATA             integral         32    'h0xxxxxxxx
#   PSTRB              integral         4     'hf        
#   PWRITE             integral         1     'h1        
#   PENABLE            integral         1     'h1        
#   PREADY             integral         1     'h1        
#   PSLVERR            integral         1     'h0X       
#   PSEL               da(integral)     0     -          
#   no_of_wait_cycles  integral         32    'd0        
#   wait_enable        integral         1     'dX        
# -------------------------------------------------------
# 
# UVM_INFO ../master_agent/apb_master_drv.sv(161) @ 190: uvm_test_top.env_h.agent_hm.drv_hm [apb_master_drv] [MASTER-TRANS-2] Transfer Complete — MASTER-DRIVER
# -------------------------------------------------------------------------------------------------
# Name                           Type              Size  Value                                     
# -------------------------------------------------------------------------------------------------
# trans_hm                       apb_master_trans  -     @1821                                     
#   PWRITE                       integral          1     'h1                                       
#   PADDR                        integral          8     'h4                                       
#   PWDATA                       integral          32    'hdf62910                                 
#   PSTRB                        integral          4     'hf                                       
#   PENABLE                      integral          1     'h1                                       
#   PSEL                         da(integral)      4     -                                         
#     [0]                        integral          1     'h1                                       
#     [1]                        integral          1     'h0                                       
#     [2]                        integral          1     'h0                                       
#     [3]                        integral          1     'h0                                       
#   trans_size                   transfer_size_e   2     WORD                                      
#   PREADY                       integral          1     'h0X                                      
#   PRDATA                       integral          32    'h0xxxxxxxx                               
#   PSLVERR                      integral          1     'h0X                                      
#   begin_time                   time              64    130                                       
#   depth                        int               32    'd2                                       
#   parent sequence (name)       string            6     s2_seq                                    
#   parent sequence (full name)  string            42    uvm_test_top.env_h.agent_hm.seqr_hm.s2_seq
#   sequencer                    string            35    uvm_test_top.env_h.agent_hm.seqr_hm       
#   Direction                    string            5     WRITE                                     
#   Trans Size                   string            4     WORD                                      
# -------------------------------------------------------------------------------------------------
# 
# UVM_INFO ../slave_agent/apb_slave_drv.sv(67) @ 190: uvm_test_top.env_h.agent_hs_0.drv_hs [apb_slave_drv] Transaction complete at SLAVE-DRIVER =
# -----------------------------------------------------------------------------------------------------
# Name                           Type             Size  Value                                          
# -----------------------------------------------------------------------------------------------------
# trans_hs                       apb_slave_trans  -     @1826                                          
#   PADDR                        integral         8     'h0xx                                          
#   PWDATA                       integral         32    'h0xxxxxxxx                                    
#   PRDATA                       integral         32    'h0xxxxxxxx                                    
#   PSTRB                        integral         4     'h0x                                           
#   PWRITE                       integral         1     'h0X                                           
#   PENABLE                      integral         1     'h0X                                           
#   PREADY                       integral         1     'h0X                                           
#   PSLVERR                      integral         1     'h0X                                           
#   PSEL                         da(integral)     0     -                                              
#   no_of_wait_cycles            integral         32    'd0                                            
#   wait_enable                  integral         1     'd0                                            
#   begin_time                   time             64    130                                            
#   depth                        int              32    'd2                                            
#   parent sequence (name)       string           9     seqs_hs_0                                      
#   parent sequence (full name)  string           47    uvm_test_top.env_h.agent_hs_0.seqr_hs.seqs_hs_0
#   sequencer                    string           37    uvm_test_top.env_h.agent_hs_0.seqr_hs          
# -----------------------------------------------------------------------------------------------------
# 
# UVM_INFO ../env/apb_sb.sv(127) @ 190: uvm_test_top.env_h.sb_h [apb_sb] Data received from slave 0 monitor = 
# -------------------------------------------------------
# Name                 Type             Size  Value      
# -------------------------------------------------------
# trans_hs             apb_slave_trans  -     @1816      
#   PADDR              integral         8     'h4        
#   PWDATA             integral         32    'hdf62910  
#   PRDATA             integral         32    'h0xxxxxxxx
#   PSTRB              integral         4     'hf        
#   PWRITE             integral         1     'h1        
#   PENABLE            integral         1     'h1        
#   PREADY             integral         1     'h1        
#   PSLVERR            integral         1     'h0X       
#   PSEL               da(integral)     0     -          
#   no_of_wait_cycles  integral         32    'd0        
#   wait_enable        integral         1     'dX        
# -------------------------------------------------------
# 
# UVM_INFO ../test//master_tc/apb_multi_slave_min_max_mid_addr_seqs.sv(38) @ 190: uvm_test_top.env_h.agent_hm.seqr_hm@@s2_seq [apb_multi_slave_min_max_mid_addr_seqs] Transaction-2 sent from MASTER SEQS =
# -------------------------------------------------------------------------------------------------
# Name                           Type              Size  Value                                     
# -------------------------------------------------------------------------------------------------
# trans_hm                       apb_master_trans  -     @1821                                     
#   PWRITE                       integral          1     'h1                                       
#   PADDR                        integral          8     'h4                                       
#   PWDATA                       integral          32    'hdf62910                                 
#   PSTRB                        integral          4     'hf                                       
#   PENABLE                      integral          1     'h1                                       
#   PSEL                         da(integral)      4     -                                         
#     [0]                        integral          1     'h1                                       
#     [1]                        integral          1     'h0                                       
#     [2]                        integral          1     'h0                                       
#     [3]                        integral          1     'h0                                       
#   trans_size                   transfer_size_e   2     WORD                                      
#   PREADY                       integral          1     'h0X                                      
#   PRDATA                       integral          32    'h0xxxxxxxx                               
#   PSLVERR                      integral          1     'h0X                                      
#   begin_time                   time              64    130                                       
#   end_time                     time              64    190                                       
#   depth                        int               32    'd2                                       
#   parent sequence (name)       string            6     s2_seq                                    
#   parent sequence (full name)  string            42    uvm_test_top.env_h.agent_hm.seqr_hm.s2_seq
#   sequencer                    string            35    uvm_test_top.env_h.agent_hm.seqr_hm       
#   Direction                    string            5     WRITE                                     
#   Trans Size                   string            4     WORD                                      
# -------------------------------------------------------------------------------------------------
# 
# 
# ---------- apb_multi_slave_min_max_mid_addr_seqs transaction : 3 ----------
# 
# UVM_INFO ../slave_agent/apb_slave_drv.sv(58) @ 190: uvm_test_top.env_h.agent_hs_0.drv_hs [apb_slave_drv] Transaction received at SLAVE-DRIVER =
# -----------------------------------------------------------------------------------------------------
# Name                           Type             Size  Value                                          
# -----------------------------------------------------------------------------------------------------
# trans_hs                       apb_slave_trans  -     @1838                                          
#   PADDR                        integral         8     'h0xx                                          
#   PWDATA                       integral         32    'h0xxxxxxxx                                    
#   PRDATA                       integral         32    'h0xxxxxxxx                                    
#   PSTRB                        integral         4     'h0x                                           
#   PWRITE                       integral         1     'h0X                                           
#   PENABLE                      integral         1     'h0X                                           
#   PREADY                       integral         1     'h0X                                           
#   PSLVERR                      integral         1     'h0X                                           
#   PSEL                         da(integral)     0     -                                              
#   no_of_wait_cycles            integral         32    'd0                                            
#   wait_enable                  integral         1     'd0                                            
#   begin_time                   time             64    190                                            
#   depth                        int              32    'd2                                            
#   parent sequence (name)       string           9     seqs_hs_0                                      
#   parent sequence (full name)  string           47    uvm_test_top.env_h.agent_hs_0.seqr_hs.seqs_hs_0
#   sequencer                    string           37    uvm_test_top.env_h.agent_hs_0.seqr_hs          
# -----------------------------------------------------------------------------------------------------
# 
# UVM_INFO ../master_agent/apb_master_drv.sv(151) @ 190: uvm_test_top.env_h.agent_hm.drv_hm [apb_master_drv] [MASTER-TRANS-3] Data Received at MASTER-DRIVER =
# -------------------------------------------------------------------------------------------------
# Name                           Type              Size  Value                                     
# -------------------------------------------------------------------------------------------------
# trans_hm                       apb_master_trans  -     @1834                                     
#   PWRITE                       integral          1     'h1                                       
#   PADDR                        integral          8     'h0                                       
#   PWDATA                       integral          32    'hcbe1937d                                
#   PSTRB                        integral          4     'hf                                       
#   PENABLE                      integral          1     'h1                                       
#   PSEL                         da(integral)      0     -                                         
#   trans_size                   transfer_size_e   2     WORD                                      
#   PREADY                       integral          1     'h0X                                      
#   PRDATA                       integral          32    'h0xxxxxxxx                               
#   PSLVERR                      integral          1     'h0X                                      
#   begin_time                   time              64    190                                       
#   depth                        int               32    'd2                                       
#   parent sequence (name)       string            6     s2_seq                                    
#   parent sequence (full name)  string            42    uvm_test_top.env_h.agent_hm.seqr_hm.s2_seq
#   sequencer                    string            35    uvm_test_top.env_h.agent_hm.seqr_hm       
#   Direction                    string            5     WRITE                                     
#   Trans Size                   string            4     WORD                                      
# -------------------------------------------------------------------------------------------------
# 
# UVM_INFO ../slave_agent/apb_slave_drv.sv(122) @ 230: uvm_test_top.env_h.agent_hs_0.drv_hs [apb_slave_drv] WRITE | ADDR=0x0 | DATA=0xcbe1937d | STRB=0xf
# UVM_INFO ../slave_agent/apb_slave_mon.sv(95) @ 250: uvm_test_top.env_h.agent_hs_0.mon_hs [apb_slave_mon] Slave-0 WRITE sampled =
# -------------------------------------------------------
# Name                 Type             Size  Value      
# -------------------------------------------------------
# trans_hs             apb_slave_trans  -     @1830      
#   PADDR              integral         8     'h0        
#   PWDATA             integral         32    'hcbe1937d 
#   PRDATA             integral         32    'h0xxxxxxxx
#   PSTRB              integral         4     'hf        
#   PWRITE             integral         1     'h1        
#   PENABLE            integral         1     'h1        
#   PREADY             integral         1     'h1        
#   PSLVERR            integral         1     'h0X       
#   PSEL               da(integral)     0     -          
#   no_of_wait_cycles  integral         32    'd0        
#   wait_enable        integral         1     'dX        
# -------------------------------------------------------
# 
# UVM_INFO ../slave_agent/apb_slave_mon.sv(104) @ 250: uvm_test_top.env_h.agent_hs_0.mon_hs [apb_slave_mon] Slave-0 transaction sent to scoreboard = 
# -------------------------------------------------------
# Name                 Type             Size  Value      
# -------------------------------------------------------
# trans_hs             apb_slave_trans  -     @1830      
#   PADDR              integral         8     'h0        
#   PWDATA             integral         32    'hcbe1937d 
#   PRDATA             integral         32    'h0xxxxxxxx
#   PSTRB              integral         4     'hf        
#   PWRITE             integral         1     'h1        
#   PENABLE            integral         1     'h1        
#   PREADY             integral         1     'h1        
#   PSLVERR            integral         1     'h0X       
#   PSEL               da(integral)     0     -          
#   no_of_wait_cycles  integral         32    'd0        
#   wait_enable        integral         1     'dX        
# -------------------------------------------------------
# 
# UVM_INFO ../master_agent/apb_master_drv.sv(161) @ 250: uvm_test_top.env_h.agent_hm.drv_hm [apb_master_drv] [MASTER-TRANS-3] Transfer Complete — MASTER-DRIVER
# -------------------------------------------------------------------------------------------------
# Name                           Type              Size  Value                                     
# -------------------------------------------------------------------------------------------------
# trans_hm                       apb_master_trans  -     @1834                                     
#   PWRITE                       integral          1     'h1                                       
#   PADDR                        integral          8     'h0                                       
#   PWDATA                       integral          32    'hcbe1937d                                
#   PSTRB                        integral          4     'hf                                       
#   PENABLE                      integral          1     'h1                                       
#   PSEL                         da(integral)      4     -                                         
#     [0]                        integral          1     'h1                                       
#     [1]                        integral          1     'h0                                       
#     [2]                        integral          1     'h0                                       
#     [3]                        integral          1     'h0                                       
#   trans_size                   transfer_size_e   2     WORD                                      
#   PREADY                       integral          1     'h0X                                      
#   PRDATA                       integral          32    'h0xxxxxxxx                               
#   PSLVERR                      integral          1     'h0X                                      
#   begin_time                   time              64    190                                       
#   depth                        int               32    'd2                                       
#   parent sequence (name)       string            6     s2_seq                                    
#   parent sequence (full name)  string            42    uvm_test_top.env_h.agent_hm.seqr_hm.s2_seq
#   sequencer                    string            35    uvm_test_top.env_h.agent_hm.seqr_hm       
#   Direction                    string            5     WRITE                                     
#   Trans Size                   string            4     WORD                                      
# -------------------------------------------------------------------------------------------------
# 
# UVM_INFO ../slave_agent/apb_slave_drv.sv(67) @ 250: uvm_test_top.env_h.agent_hs_0.drv_hs [apb_slave_drv] Transaction complete at SLAVE-DRIVER =
# -----------------------------------------------------------------------------------------------------
# Name                           Type             Size  Value                                          
# -----------------------------------------------------------------------------------------------------
# trans_hs                       apb_slave_trans  -     @1838                                          
#   PADDR                        integral         8     'h0xx                                          
#   PWDATA                       integral         32    'h0xxxxxxxx                                    
#   PRDATA                       integral         32    'h0xxxxxxxx                                    
#   PSTRB                        integral         4     'h0x                                           
#   PWRITE                       integral         1     'h0X                                           
#   PENABLE                      integral         1     'h0X                                           
#   PREADY                       integral         1     'h0X                                           
#   PSLVERR                      integral         1     'h0X                                           
#   PSEL                         da(integral)     0     -                                              
#   no_of_wait_cycles            integral         32    'd0                                            
#   wait_enable                  integral         1     'd0                                            
#   begin_time                   time             64    190                                            
#   depth                        int              32    'd2                                            
#   parent sequence (name)       string           9     seqs_hs_0                                      
#   parent sequence (full name)  string           47    uvm_test_top.env_h.agent_hs_0.seqr_hs.seqs_hs_0
#   sequencer                    string           37    uvm_test_top.env_h.agent_hs_0.seqr_hs          
# -----------------------------------------------------------------------------------------------------
# 
# UVM_INFO ../env/apb_sb.sv(127) @ 250: uvm_test_top.env_h.sb_h [apb_sb] Data received from slave 0 monitor = 
# -------------------------------------------------------
# Name                 Type             Size  Value      
# -------------------------------------------------------
# trans_hs             apb_slave_trans  -     @1830      
#   PADDR              integral         8     'h0        
#   PWDATA             integral         32    'hcbe1937d 
#   PRDATA             integral         32    'h0xxxxxxxx
#   PSTRB              integral         4     'hf        
#   PWRITE             integral         1     'h1        
#   PENABLE            integral         1     'h1        
#   PREADY             integral         1     'h1        
#   PSLVERR            integral         1     'h0X       
#   PSEL               da(integral)     0     -          
#   no_of_wait_cycles  integral         32    'd0        
#   wait_enable        integral         1     'dX        
# -------------------------------------------------------
# 
# UVM_INFO ../test//master_tc/apb_multi_slave_min_max_mid_addr_seqs.sv(38) @ 250: uvm_test_top.env_h.agent_hm.seqr_hm@@s2_seq [apb_multi_slave_min_max_mid_addr_seqs] Transaction-3 sent from MASTER SEQS =
# -------------------------------------------------------------------------------------------------
# Name                           Type              Size  Value                                     
# -------------------------------------------------------------------------------------------------
# trans_hm                       apb_master_trans  -     @1834                                     
#   PWRITE                       integral          1     'h1                                       
#   PADDR                        integral          8     'h0                                       
#   PWDATA                       integral          32    'hcbe1937d                                
#   PSTRB                        integral          4     'hf                                       
#   PENABLE                      integral          1     'h1                                       
#   PSEL                         da(integral)      4     -                                         
#     [0]                        integral          1     'h1                                       
#     [1]                        integral          1     'h0                                       
#     [2]                        integral          1     'h0                                       
#     [3]                        integral          1     'h0                                       
#   trans_size                   transfer_size_e   2     WORD                                      
#   PREADY                       integral          1     'h0X                                      
#   PRDATA                       integral          32    'h0xxxxxxxx                               
#   PSLVERR                      integral          1     'h0X                                      
#   begin_time                   time              64    190                                       
#   end_time                     time              64    250                                       
#   depth                        int               32    'd2                                       
#   parent sequence (name)       string            6     s2_seq                                    
#   parent sequence (full name)  string            42    uvm_test_top.env_h.agent_hm.seqr_hm.s2_seq
#   sequencer                    string            35    uvm_test_top.env_h.agent_hm.seqr_hm       
#   Direction                    string            5     WRITE                                     
#   Trans Size                   string            4     WORD                                      
# -------------------------------------------------------------------------------------------------
# 
# 
# ---------- apb_multi_slave_min_max_mid_addr_seqs transaction : 4 ----------
# 
# UVM_INFO ../slave_agent/apb_slave_drv.sv(58) @ 250: uvm_test_top.env_h.agent_hs_0.drv_hs [apb_slave_drv] Transaction received at SLAVE-DRIVER =
# -----------------------------------------------------------------------------------------------------
# Name                           Type             Size  Value                                          
# -----------------------------------------------------------------------------------------------------
# trans_hs                       apb_slave_trans  -     @1850                                          
#   PADDR                        integral         8     'h0xx                                          
#   PWDATA                       integral         32    'h0xxxxxxxx                                    
#   PRDATA                       integral         32    'h0xxxxxxxx                                    
#   PSTRB                        integral         4     'h0x                                           
#   PWRITE                       integral         1     'h0X                                           
#   PENABLE                      integral         1     'h0X                                           
#   PREADY                       integral         1     'h0X                                           
#   PSLVERR                      integral         1     'h0X                                           
#   PSEL                         da(integral)     0     -                                              
#   no_of_wait_cycles            integral         32    'd1                                            
#   wait_enable                  integral         1     1                                              
#   begin_time                   time             64    250                                            
#   depth                        int              32    'd2                                            
#   parent sequence (name)       string           9     seqs_hs_0                                      
#   parent sequence (full name)  string           47    uvm_test_top.env_h.agent_hs_0.seqr_hs.seqs_hs_0
#   sequencer                    string           37    uvm_test_top.env_h.agent_hs_0.seqr_hs          
# -----------------------------------------------------------------------------------------------------
# 
# UVM_INFO ../master_agent/apb_master_drv.sv(151) @ 250: uvm_test_top.env_h.agent_hm.drv_hm [apb_master_drv] [MASTER-TRANS-4] Data Received at MASTER-DRIVER =
# -------------------------------------------------------------------------------------------------
# Name                           Type              Size  Value                                     
# -------------------------------------------------------------------------------------------------
# trans_hm                       apb_master_trans  -     @1846                                     
#   PWRITE                       integral          1     'h1                                       
#   PADDR                        integral          8     'h1d                                      
#   PWDATA                       integral          32    'hc4befb3c                                
#   PSTRB                        integral          4     'h3                                       
#   PENABLE                      integral          1     'h1                                       
#   PSEL                         da(integral)      0     -                                         
#   trans_size                   transfer_size_e   2     HALFWORD                                  
#   PREADY                       integral          1     'h0X                                      
#   PRDATA                       integral          32    'h0xxxxxxxx                               
#   PSLVERR                      integral          1     'h0X                                      
#   begin_time                   time              64    250                                       
#   depth                        int               32    'd2                                       
#   parent sequence (name)       string            6     s2_seq                                    
#   parent sequence (full name)  string            42    uvm_test_top.env_h.agent_hm.seqr_hm.s2_seq
#   sequencer                    string            35    uvm_test_top.env_h.agent_hm.seqr_hm       
#   Direction                    string            5     WRITE                                     
#   Trans Size                   string            8     HALFWORD                                  
# -------------------------------------------------------------------------------------------------
# 
# UVM_INFO ../slave_agent/apb_slave_drv.sv(122) @ 310: uvm_test_top.env_h.agent_hs_0.drv_hs [apb_slave_drv] WRITE | ADDR=0x1d | DATA=0xfb3c | STRB=0x3
# UVM_INFO ../slave_agent/apb_slave_mon.sv(95) @ 330: uvm_test_top.env_h.agent_hs_0.mon_hs [apb_slave_mon] Slave-0 WRITE sampled =
# -------------------------------------------------------
# Name                 Type             Size  Value      
# -------------------------------------------------------
# trans_hs             apb_slave_trans  -     @1842      
#   PADDR              integral         8     'h1d       
#   PWDATA             integral         32    'hc4befb3c 
#   PRDATA             integral         32    'h0xxxxxxxx
#   PSTRB              integral         4     'h3        
#   PWRITE             integral         1     'h1        
#   PENABLE            integral         1     'h1        
#   PREADY             integral         1     'h1        
#   PSLVERR            integral         1     'h0X       
#   PSEL               da(integral)     0     -          
#   no_of_wait_cycles  integral         32    'd0        
#   wait_enable        integral         1     'dX        
# -------------------------------------------------------
# 
# UVM_INFO ../slave_agent/apb_slave_mon.sv(104) @ 330: uvm_test_top.env_h.agent_hs_0.mon_hs [apb_slave_mon] Slave-0 transaction sent to scoreboard = 
# -------------------------------------------------------
# Name                 Type             Size  Value      
# -------------------------------------------------------
# trans_hs             apb_slave_trans  -     @1842      
#   PADDR              integral         8     'h1d       
#   PWDATA             integral         32    'hc4befb3c 
#   PRDATA             integral         32    'h0xxxxxxxx
#   PSTRB              integral         4     'h3        
#   PWRITE             integral         1     'h1        
#   PENABLE            integral         1     'h1        
#   PREADY             integral         1     'h1        
#   PSLVERR            integral         1     'h0X       
#   PSEL               da(integral)     0     -          
#   no_of_wait_cycles  integral         32    'd0        
#   wait_enable        integral         1     'dX        
# -------------------------------------------------------
# 
# UVM_INFO ../master_agent/apb_master_drv.sv(161) @ 330: uvm_test_top.env_h.agent_hm.drv_hm [apb_master_drv] [MASTER-TRANS-4] Transfer Complete — MASTER-DRIVER
# -------------------------------------------------------------------------------------------------
# Name                           Type              Size  Value                                     
# -------------------------------------------------------------------------------------------------
# trans_hm                       apb_master_trans  -     @1846                                     
#   PWRITE                       integral          1     'h1                                       
#   PADDR                        integral          8     'h1d                                      
#   PWDATA                       integral          32    'hc4befb3c                                
#   PSTRB                        integral          4     'h3                                       
#   PENABLE                      integral          1     'h1                                       
#   PSEL                         da(integral)      4     -                                         
#     [0]                        integral          1     'h1                                       
#     [1]                        integral          1     'h0                                       
#     [2]                        integral          1     'h0                                       
#     [3]                        integral          1     'h0                                       
#   trans_size                   transfer_size_e   2     HALFWORD                                  
#   PREADY                       integral          1     'h0X                                      
#   PRDATA                       integral          32    'h0xxxxxxxx                               
#   PSLVERR                      integral          1     'h0X                                      
#   begin_time                   time              64    250                                       
#   depth                        int               32    'd2                                       
#   parent sequence (name)       string            6     s2_seq                                    
#   parent sequence (full name)  string            42    uvm_test_top.env_h.agent_hm.seqr_hm.s2_seq
#   sequencer                    string            35    uvm_test_top.env_h.agent_hm.seqr_hm       
#   Direction                    string            5     WRITE                                     
#   Trans Size                   string            8     HALFWORD                                  
# -------------------------------------------------------------------------------------------------
# 
# UVM_INFO ../slave_agent/apb_slave_drv.sv(67) @ 330: uvm_test_top.env_h.agent_hs_0.drv_hs [apb_slave_drv] Transaction complete at SLAVE-DRIVER =
# -----------------------------------------------------------------------------------------------------
# Name                           Type             Size  Value                                          
# -----------------------------------------------------------------------------------------------------
# trans_hs                       apb_slave_trans  -     @1850                                          
#   PADDR                        integral         8     'h0xx                                          
#   PWDATA                       integral         32    'h0xxxxxxxx                                    
#   PRDATA                       integral         32    'h0xxxxxxxx                                    
#   PSTRB                        integral         4     'h0x                                           
#   PWRITE                       integral         1     'h0X                                           
#   PENABLE                      integral         1     'h0X                                           
#   PREADY                       integral         1     'h0X                                           
#   PSLVERR                      integral         1     'h0X                                           
#   PSEL                         da(integral)     0     -                                              
#   no_of_wait_cycles            integral         32    'd1                                            
#   wait_enable                  integral         1     1                                              
#   begin_time                   time             64    250                                            
#   depth                        int              32    'd2                                            
#   parent sequence (name)       string           9     seqs_hs_0                                      
#   parent sequence (full name)  string           47    uvm_test_top.env_h.agent_hs_0.seqr_hs.seqs_hs_0
#   sequencer                    string           37    uvm_test_top.env_h.agent_hs_0.seqr_hs          
# -----------------------------------------------------------------------------------------------------
# 
# UVM_INFO ../env/apb_sb.sv(127) @ 330: uvm_test_top.env_h.sb_h [apb_sb] Data received from slave 0 monitor = 
# -------------------------------------------------------
# Name                 Type             Size  Value      
# -------------------------------------------------------
# trans_hs             apb_slave_trans  -     @1842      
#   PADDR              integral         8     'h1d       
#   PWDATA             integral         32    'hc4befb3c 
#   PRDATA             integral         32    'h0xxxxxxxx
#   PSTRB              integral         4     'h3        
#   PWRITE             integral         1     'h1        
#   PENABLE            integral         1     'h1        
#   PREADY             integral         1     'h1        
#   PSLVERR            integral         1     'h0X       
#   PSEL               da(integral)     0     -          
#   no_of_wait_cycles  integral         32    'd0        
#   wait_enable        integral         1     'dX        
# -------------------------------------------------------
# 
# UVM_INFO ../test//master_tc/apb_multi_slave_min_max_mid_addr_seqs.sv(38) @ 330: uvm_test_top.env_h.agent_hm.seqr_hm@@s2_seq [apb_multi_slave_min_max_mid_addr_seqs] Transaction-4 sent from MASTER SEQS =
# -------------------------------------------------------------------------------------------------
# Name                           Type              Size  Value                                     
# -------------------------------------------------------------------------------------------------
# trans_hm                       apb_master_trans  -     @1846                                     
#   PWRITE                       integral          1     'h1                                       
#   PADDR                        integral          8     'h1d                                      
#   PWDATA                       integral          32    'hc4befb3c                                
#   PSTRB                        integral          4     'h3                                       
#   PENABLE                      integral          1     'h1                                       
#   PSEL                         da(integral)      4     -                                         
#     [0]                        integral          1     'h1                                       
#     [1]                        integral          1     'h0                                       
#     [2]                        integral          1     'h0                                       
#     [3]                        integral          1     'h0                                       
#   trans_size                   transfer_size_e   2     HALFWORD                                  
#   PREADY                       integral          1     'h0X                                      
#   PRDATA                       integral          32    'h0xxxxxxxx                               
#   PSLVERR                      integral          1     'h0X                                      
#   begin_time                   time              64    250                                       
#   end_time                     time              64    330                                       
#   depth                        int               32    'd2                                       
#   parent sequence (name)       string            6     s2_seq                                    
#   parent sequence (full name)  string            42    uvm_test_top.env_h.agent_hm.seqr_hm.s2_seq
#   sequencer                    string            35    uvm_test_top.env_h.agent_hm.seqr_hm       
#   Direction                    string            5     WRITE                                     
#   Trans Size                   string            8     HALFWORD                                  
# -------------------------------------------------------------------------------------------------
# 
# 
# ---------- apb_multi_slave_min_max_mid_addr_seqs transaction : 5 ----------
# 
# UVM_INFO ../slave_agent/apb_slave_drv.sv(58) @ 330: uvm_test_top.env_h.agent_hs_0.drv_hs [apb_slave_drv] Transaction received at SLAVE-DRIVER =
# -----------------------------------------------------------------------------------------------------
# Name                           Type             Size  Value                                          
# -----------------------------------------------------------------------------------------------------
# trans_hs                       apb_slave_trans  -     @1862                                          
#   PADDR                        integral         8     'h0xx                                          
#   PWDATA                       integral         32    'h0xxxxxxxx                                    
#   PRDATA                       integral         32    'h0xxxxxxxx                                    
#   PSTRB                        integral         4     'h0x                                           
#   PWRITE                       integral         1     'h0X                                           
#   PENABLE                      integral         1     'h0X                                           
#   PREADY                       integral         1     'h0X                                           
#   PSLVERR                      integral         1     'h0X                                           
#   PSEL                         da(integral)     0     -                                              
#   no_of_wait_cycles            integral         32    'd1                                            
#   wait_enable                  integral         1     1                                              
#   begin_time                   time             64    330                                            
#   depth                        int              32    'd2                                            
#   parent sequence (name)       string           9     seqs_hs_0                                      
#   parent sequence (full name)  string           47    uvm_test_top.env_h.agent_hs_0.seqr_hs.seqs_hs_0
#   sequencer                    string           37    uvm_test_top.env_h.agent_hs_0.seqr_hs          
# -----------------------------------------------------------------------------------------------------
# 
# UVM_INFO ../master_agent/apb_master_drv.sv(151) @ 330: uvm_test_top.env_h.agent_hm.drv_hm [apb_master_drv] [MASTER-TRANS-5] Data Received at MASTER-DRIVER =
# -------------------------------------------------------------------------------------------------
# Name                           Type              Size  Value                                     
# -------------------------------------------------------------------------------------------------
# trans_hm                       apb_master_trans  -     @1858                                     
#   PWRITE                       integral          1     'h1                                       
#   PADDR                        integral          8     'h0                                       
#   PWDATA                       integral          32    'h8938e805                                
#   PSTRB                        integral          4     'hf                                       
#   PENABLE                      integral          1     'h1                                       
#   PSEL                         da(integral)      0     -                                         
#   trans_size                   transfer_size_e   2     WORD                                      
#   PREADY                       integral          1     'h0X                                      
#   PRDATA                       integral          32    'h0xxxxxxxx                               
#   PSLVERR                      integral          1     'h0X                                      
#   begin_time                   time              64    330                                       
#   depth                        int               32    'd2                                       
#   parent sequence (name)       string            6     s2_seq                                    
#   parent sequence (full name)  string            42    uvm_test_top.env_h.agent_hm.seqr_hm.s2_seq
#   sequencer                    string            35    uvm_test_top.env_h.agent_hm.seqr_hm       
#   Direction                    string            5     WRITE                                     
#   Trans Size                   string            4     WORD                                      
# -------------------------------------------------------------------------------------------------
# 
# UVM_INFO ../slave_agent/apb_slave_drv.sv(122) @ 390: uvm_test_top.env_h.agent_hs_0.drv_hs [apb_slave_drv] WRITE | ADDR=0x0 | DATA=0x8938e805 | STRB=0xf
# UVM_INFO ../slave_agent/apb_slave_mon.sv(95) @ 410: uvm_test_top.env_h.agent_hs_0.mon_hs [apb_slave_mon] Slave-0 WRITE sampled =
# -------------------------------------------------------
# Name                 Type             Size  Value      
# -------------------------------------------------------
# trans_hs             apb_slave_trans  -     @1854      
#   PADDR              integral         8     'h0        
#   PWDATA             integral         32    'h8938e805 
#   PRDATA             integral         32    'h0xxxxxxxx
#   PSTRB              integral         4     'hf        
#   PWRITE             integral         1     'h1        
#   PENABLE            integral         1     'h1        
#   PREADY             integral         1     'h1        
#   PSLVERR            integral         1     'h0X       
#   PSEL               da(integral)     0     -          
#   no_of_wait_cycles  integral         32    'd0        
#   wait_enable        integral         1     'dX        
# -------------------------------------------------------
# 
# UVM_INFO ../slave_agent/apb_slave_mon.sv(104) @ 410: uvm_test_top.env_h.agent_hs_0.mon_hs [apb_slave_mon] Slave-0 transaction sent to scoreboard = 
# -------------------------------------------------------
# Name                 Type             Size  Value      
# -------------------------------------------------------
# trans_hs             apb_slave_trans  -     @1854      
#   PADDR              integral         8     'h0        
#   PWDATA             integral         32    'h8938e805 
#   PRDATA             integral         32    'h0xxxxxxxx
#   PSTRB              integral         4     'hf        
#   PWRITE             integral         1     'h1        
#   PENABLE            integral         1     'h1        
#   PREADY             integral         1     'h1        
#   PSLVERR            integral         1     'h0X       
#   PSEL               da(integral)     0     -          
#   no_of_wait_cycles  integral         32    'd0        
#   wait_enable        integral         1     'dX        
# -------------------------------------------------------
# 
# UVM_INFO ../master_agent/apb_master_drv.sv(161) @ 410: uvm_test_top.env_h.agent_hm.drv_hm [apb_master_drv] [MASTER-TRANS-5] Transfer Complete — MASTER-DRIVER
# -------------------------------------------------------------------------------------------------
# Name                           Type              Size  Value                                     
# -------------------------------------------------------------------------------------------------
# trans_hm                       apb_master_trans  -     @1858                                     
#   PWRITE                       integral          1     'h1                                       
#   PADDR                        integral          8     'h0                                       
#   PWDATA                       integral          32    'h8938e805                                
#   PSTRB                        integral          4     'hf                                       
#   PENABLE                      integral          1     'h1                                       
#   PSEL                         da(integral)      4     -                                         
#     [0]                        integral          1     'h1                                       
#     [1]                        integral          1     'h0                                       
#     [2]                        integral          1     'h0                                       
#     [3]                        integral          1     'h0                                       
#   trans_size                   transfer_size_e   2     WORD                                      
#   PREADY                       integral          1     'h0X                                      
#   PRDATA                       integral          32    'h0xxxxxxxx                               
#   PSLVERR                      integral          1     'h0X                                      
#   begin_time                   time              64    330                                       
#   depth                        int               32    'd2                                       
#   parent sequence (name)       string            6     s2_seq                                    
#   parent sequence (full name)  string            42    uvm_test_top.env_h.agent_hm.seqr_hm.s2_seq
#   sequencer                    string            35    uvm_test_top.env_h.agent_hm.seqr_hm       
#   Direction                    string            5     WRITE                                     
#   Trans Size                   string            4     WORD                                      
# -------------------------------------------------------------------------------------------------
# 
# UVM_INFO ../slave_agent/apb_slave_drv.sv(67) @ 410: uvm_test_top.env_h.agent_hs_0.drv_hs [apb_slave_drv] Transaction complete at SLAVE-DRIVER =
# -----------------------------------------------------------------------------------------------------
# Name                           Type             Size  Value                                          
# -----------------------------------------------------------------------------------------------------
# trans_hs                       apb_slave_trans  -     @1862                                          
#   PADDR                        integral         8     'h0xx                                          
#   PWDATA                       integral         32    'h0xxxxxxxx                                    
#   PRDATA                       integral         32    'h0xxxxxxxx                                    
#   PSTRB                        integral         4     'h0x                                           
#   PWRITE                       integral         1     'h0X                                           
#   PENABLE                      integral         1     'h0X                                           
#   PREADY                       integral         1     'h0X                                           
#   PSLVERR                      integral         1     'h0X                                           
#   PSEL                         da(integral)     0     -                                              
#   no_of_wait_cycles            integral         32    'd1                                            
#   wait_enable                  integral         1     1                                              
#   begin_time                   time             64    330                                            
#   depth                        int              32    'd2                                            
#   parent sequence (name)       string           9     seqs_hs_0                                      
#   parent sequence (full name)  string           47    uvm_test_top.env_h.agent_hs_0.seqr_hs.seqs_hs_0
#   sequencer                    string           37    uvm_test_top.env_h.agent_hs_0.seqr_hs          
# -----------------------------------------------------------------------------------------------------
# 
# UVM_INFO ../env/apb_sb.sv(127) @ 410: uvm_test_top.env_h.sb_h [apb_sb] Data received from slave 0 monitor = 
# -------------------------------------------------------
# Name                 Type             Size  Value      
# -------------------------------------------------------
# trans_hs             apb_slave_trans  -     @1854      
#   PADDR              integral         8     'h0        
#   PWDATA             integral         32    'h8938e805 
#   PRDATA             integral         32    'h0xxxxxxxx
#   PSTRB              integral         4     'hf        
#   PWRITE             integral         1     'h1        
#   PENABLE            integral         1     'h1        
#   PREADY             integral         1     'h1        
#   PSLVERR            integral         1     'h0X       
#   PSEL               da(integral)     0     -          
#   no_of_wait_cycles  integral         32    'd0        
#   wait_enable        integral         1     'dX        
# -------------------------------------------------------
# 
# UVM_INFO ../test//master_tc/apb_multi_slave_min_max_mid_addr_seqs.sv(38) @ 410: uvm_test_top.env_h.agent_hm.seqr_hm@@s2_seq [apb_multi_slave_min_max_mid_addr_seqs] Transaction-5 sent from MASTER SEQS =
# -------------------------------------------------------------------------------------------------
